# Hz S RI R 50
2050000 0.02735436320394107 0.009742751717786213 0.9269451094593592 -0.24853515719741015 0 0 0 0
5029500 0.03655245402732228 0.006620424174137198 0.7711283095233162 -0.5622319244968982 0 0 0 0
8009000 0.04211318464509082 0.00017295368420782833 0.5159644889691796 -0.7991953879464418 0 0 0 0
10988500 0.042094260179318485 -0.00915404645323871 0.19372468453025157 -0.9289808543252909 0 0 0 0
13968000 0.03780023103006588 -0.01663253357843605 -0.15264625113442862 -0.9348923039027007 0 0 0 0
16947500 0.02977636633027015 -0.02109185167955156 -0.4774109717358532 -0.8164791534063018 0 0 0 0
19927000 0.020516057904304573 -0.020751443760182803 -0.737767625054657 -0.5894305552654547 0 0 0 0
22906500 0.013332998272652795 -0.015614659109052617 -0.8985432992124367 -0.28481182479605716 0 0 0 0
25886000 0.01023861024451749 -0.007583090922469801 -0.9399713418301283 0.056688553936761074 0 0 0 0
28865500 0.012487842198378235 0.000746932573419948 -0.8558701792267988 0.3896750807031571 0 0 0 0
31845000 0.018716770581785343 0.005723891273210816 -0.6581468251710155 0.6697147264709931 0 0 0 0
34824500 0.026699586463769676 0.00641874473204571 -0.3736389290491106 0.8601252359322348 0 0 0 0
37804000 0.03365546121690996 0.0014205379095892639 -0.040558224933189974 0.9360146793267361 0 0 0 0
40783500 0.036111128777365165 -0.006706366451279528 0.297627252173333 0.8879345239963482 0 0 0 0
43763000 0.03236432360740715 -0.015052004515208646 0.5959593689190387 0.7212296542982652 0 0 0 0
46742500 0.024357874223217897 -0.0187140352783262 0.8143334977840625 0.4591158114929479 0 0 0 0
49722000 0.01582949826965362 -0.016195121765925014 0.9238839959232564 0.13630751862361082 0 0 0 0
52701500 0.010676891286622745 -0.008420835792545708 0.9102285964906753 -0.20379179177632403 0 0 0 0
55681000 0.011842546275063932 0.001085408370432947 0.7762825601365979 -0.5160845661426923 0 0 0 0
58660500 0.019673880539747633 0.008077450723271352 0.5387871597053171 -0.7590834805624762 0 0 0 0
61640000 0.0307899227067261 0.007792684406931705 0.23041472429987728 -0.9012660610253689 0 0 0 0
64619500 0.03976180285913185 0.00047937504826907036 -0.1081764718690118 -0.9233385309491192 0 0 0 0
67599000 0.04200611631237451 -0.011450168526959787 -0.4319987440051284 -0.8233022320129447 0 0 0 0
70578500 0.03630238763905085 -0.022904437194069545 -0.698060417740185 -0.6138589518510318 0 0 0 0
73558000 0.024132304892645857 -0.02765623330286894 -0.8708371900015781 -0.32291736857591496 0 0 0 0
76537500 0.011235791304814497 -0.02331907840809819 -0.9282280068523785 0.011062174805008774 0 0 0 0
79517000 0.005013668922249335 -0.011564518991513638 -0.8620247745700477 0.3432960595350889 0 0 0 0
82496500 0.0076911778009632085 0.0014579406700059915 -0.6810964449658441 0.6291430297319237 0 0 0 0
85476000 0.0189171134609551 0.009641826415160738 -0.41055614770739396 0.8306702032714447 0 0 0 0
88455500 0.03381358361152227 0.008416173355354708 -0.0858724051788361 0.9217963513269042 0 0 0 0
91435000 0.04402880959794755 -0.002991679440774094 0.24983461343906266 0.8906190073879953 0 0 0 0
94414500 0.04492247203310452 -0.01870319036337187 0.551955384970568 0.7413045958429454 0 0 0 0
97394000 0.035610895197084276 -0.03165883595181605 0.7811663275070762 0.49362983467753574 0 0 0 0
100373500 0.019428283404443115 -0.03535469501986099 0.905599740191075 0.18046935373595316 0 0 0 0
103353000 0.00501594118546964 -0.02772086483026604 0.909908091330915 -0.15610818454724654 0 0 0 0
106332500 -0.0003386900389730972 -0.012965548776087937 0.7925647381433911 -0.47182719848306415 0 0 0 0
109312000 0.0055494680603188 0.0012304368215727262 0.5705459488029848 -0.724396631524587 0 0 0 0
112291500 0.020260374651070723 0.007289315473946903 0.27293392616291356 -0.8801312451875167 0 0 0 0
115271000 0.035013758138383505 0.0012826524409872988 -0.06126172491667937 -0.919180826137551 0 0 0 0
118250500 0.04145106391177877 -0.014084456960625638 -0.3864284936696527 -0.8357347803954952 0 0 0 0
121230000 0.03551281391840851 -0.03052567070461035 -0.6603192050422951 -0.6416603699124296 0 0 0 0
124209500 0.018417413220939968 -0.03971036227690473 -0.8458695451413033 -0.362105373271668 0 0 0 0
127189000 -0.0014308365454923323 -0.034884194088350744 -0.9192118205892542 -0.03502643301575863 0 0 0 0
130168500 -0.014125798167667923 -0.017567783859787106 -0.8696790603104004 0.2968363467599167 0 0 0 0
133148000 -0.012465164593531648 0.004417914414301048 -0.7047282562137025 0.5881314025562367 0 0 0 0
136127500 0.002286472835459919 0.02066000770174734 -0.4471743443020989 0.8009138900751848 0 0 0 0
139107000 0.02444196790379644 0.023176572475289457 -0.13089660646106718 0.9080825514327362 0 0 0 0
142086500 0.04353321598961283 0.011609400224668078 0.2029219236408106 0.8938032867542238 0 0 0 0
145066000 0.050049825753549326 -0.009736776202757808 0.5094120199975222 0.7614381577513516 0 0 0 0
148045500 0.04117817026637364 -0.029843335954080924 0.7479230046606037 0.5281725612978728 0 0 0 0
151025000 0.02158001051195332 -0.0379073951550664 0.8870781986660169 0.22469565580584686 0 0 0 0
154004500 0.0025161683934582135 -0.03175281993306346 0.9079005081656648 -0.10889612548840458 0 0 0 0
156984000 -0.006884104639892669 -0.014458748797929594 0.8083779128462826 -0.4271625663720059 0 0 0 0
159963500 -0.0010173647580841612 0.00442650080484802 0.601427298195228 -0.6882358223576678 0 0 0 0
162943000 0.015582396685232095 0.013381681853141104 0.31439358467306183 -0.857802046254073 0 0 0 0
165922500 0.03416283470929506 0.007739489669361044 -0.014348957786059453 -0.9131494019919294 0 0 0 0
168902000 0.04340162235576315 -0.010216929854254087 -0.33997335982371646 -0.8466735643141646 0 0 0 0
171881500 0.037080983667863596 -0.030063454882606973 -0.6205442965869961 -0.668610320922199 0 0 0 0
174861000 0.018201329900575717 -0.0408384529389991 -0.8186350480636667 -0.401983704440295 0 0 0 0
177840500 -0.004438476925864904 -0.034926589007835455 -0.9079241831937458 -0.08189190884805914 0 0 0 0
180820000 -0.017991569529456155 -0.014971839259967822 -0.876460281262139 0.24851321467792056 0 0 0 0
183799500 -0.014327471011830867 0.010190847988578586 -0.7286597666077864 0.5461990942918068 0 0 0 0
186779000 0.0060082037964839605 0.027227016709824345 -0.4844687647236694 0.7703179190751835 0 0 0 0
189758500 0.03315301925754244 0.02669768609715711 -0.17604819067451805 0.8913549249596961 0 0 0 0
192738000 0.05519105896317545 0.007978070058429125 0.15477480840915822 0.8944875763726288 0 0 0 0
195717500 0.05945398873025791 -0.0212463788340478 0.4643031375083807 0.7793887021446456 0 0 0 0
198697000 0.04358968374034777 -0.047225300949272256 0.7111377743943332 0.5610564347169448 0 0 0 0
201676500 0.01480432390543902 -0.05612178034897499 0.8648199353821083 0.268999393196931 0 0 0 0
204656000 -0.013236237744162297 -0.04502725971534734 0.9037638916301496 -0.05921156780922165 0 0 0 0
207635500 -0.025777789154618123 -0.01768863642418664 0.8227182751723895 -0.37938798352973896 0 0 0 0
210615000 -0.017743993000998253 0.010354321011466733 0.6311051088366897 -0.6491306786783662 0 0 0 0
213594500 0.006581910212498876 0.024759919821755367 0.35597823711639753 -0.8314349577212525 0 0 0 0
216574000 0.03455367514632263 0.019064272966015528 0.034413451611526015 -0.9031566256417582 0 0 0 0
219553500 0.05120339057957329 -0.004727168949532612 -0.2913514283639832 -0.8552113507123801 0 0 0 0
222533000 0.04641896858043155 -0.03339165814534589 -0.5777058954514942 -0.695274354383804 0 0 0 0
225512500 0.0225547706839268 -0.051653032959725634 -0.7879417686872603 -0.4423066130379961 0 0 0 0
228492000 -0.007758688270204149 -0.04854793324731673 -0.8940649571356735 -0.1301998995764359 0 0 0 0
231471500 -0.028110267972425277 -0.024818911765760763 -0.8810491339631088 0.19908332419502364 0 0 0 0
234451000 -0.027088210145033174 0.0074720308289107605 -0.7502813919753414 0.5013663666569289 0 0 0 0
237430500 -0.003294240050852676 0.030771348451038277 -0.5198534551195808 0.7355792847868683 0 0 0 0
240410000 0.031096719154681096 0.032740345757480485 -0.22132641957881058 0.8715157204645502 0 0 0 0
243389500 0.059498676666923614 0.0101113108012157 0.10497078940302464 0.8920022978643283 0 0 0 0
246369000 0.06723073442806843 -0.02674446611540553 0.4162347548200606 0.7952093802660767 0 0 0 0
249348500 0.048286603827645436 -0.060162620637798175 0.6730303363488245 0.593588799808719 0 0 0 0
252328000 0.011523093113631023 -0.07325381206681666 0.8414591803269685 0.313046174727246 0 0 0 0
255307500 -0.025469109582855084 -0.0591049437287486 0.8981467955407766 -0.00934501464168437 0 0 0 0
258287000 -0.043333110384596966 -0.024541125932112346 0.8344624558546833 -0.3309009126135548 0 0 0 0
261266500 -0.033956798954984956 0.014187559874439912 0.6590599367317681 -0.6082182475276791 0 0 0 0
264246000 -0.0010789417492331596 0.035312818876513434 0.3966896302704484 -0.8028858930272761 0 0 0 0
267225500 0.03740140927564927 0.029521409668640544 0.08338530081496213 -0.8907176843478479 0 0 0 0
270205000 0.06335153819088724 -0.0012824427971033531 -0.23993155318263107 -0.8614611974300372 0 0 0 0
273184500 0.06285620804753082 -0.04181686370755881 -0.5322770389818762 -0.7190286441856805 0 0 0 0
276164000 0.034237463144561116 -0.07280232693108243 -0.7546005013066193 -0.4816176693764592 0 0 0 0
279143500 -0.007041799641630512 -0.0775411235667142 -0.8769800671332656 -0.17879084627666464 0 0 0 0
282123000 -0.04141563798379781 -0.05450746326327332 -0.8821990636798431 0.14819385270282806 0 0 0 0
285102500 -0.0504234895918186 -0.01405503696262359 -0.7691558361637371 0.4537267426931549 0 0 0 0
288082000 -0.03168320245545455 0.022473206476186627 -0.5537897269674987 0.6984142191548356 0 0 0 0
291061500 0.005882623564046702 0.03693040594827287 -0.2669028868027911 0.8492542996226877 0 0 0 0
294041000 0.043415491477662625 0.021669651509669246 0.05470007925645247 0.8881330118429437 0 0 0 0
297020500 0.061305367822617717 -0.014082871892247117 0.36795574095689393 0.8107949950055767 0 0 0 0
300000000 0.0535821648606897 -0.051920124571725054 0.6420844665973985 0.6248149021060612 0 0 0 0
