# Hz S RI R 50
2050000 0.028991039699341643 0.008362172459483577 0.9244865416662024 -0.24779555281438878 0 0 0 0
5029500 0.03730052587344785 0.004400287629183352 0.7693291221328975 -0.5607287308228374 0 0 0 0
8009000 0.0409474812254287 -0.002285961755489748 0.5146913914836029 -0.7972202752481304 0 0 0 0
10988500 0.04028547807829708 -0.010039165911742452 0.19347719814394662 -0.9267844929092542 0 0 0 0
13968000 0.03556096461668241 -0.016349186839763715 -0.15217704018352782 -0.9326128647585471 0 0 0 0
16947500 0.02912333730339639 -0.019899677181694386 -0.4760326367664257 -0.8145481991604278 0 0 0 0
19927000 0.02121650425929522 -0.019467587535154728 -0.7359952778390831 -0.5881859450151212 0 0 0 0
22906500 0.015202775004616097 -0.015512840334788962 -0.896489660421806 -0.2845214094564452 0 0 0 0
25886000 0.011788889926393572 -0.008632951083113688 -0.9376959779231376 0.055987927520054846 0 0 0 0
28865500 0.013043625627980445 -0.002079387216700439 -0.8540681755852009 0.38825222013502253 0 0 0 0
31845000 0.017770994322602828 0.0028601523646680635 -0.6568578393327845 0.6678169625999855 0 0 0 0
34824500 0.024814149105777637 0.0044282246988929875 -0.37333490061974944 0.858403952545595 0 0 0 0
37804000 0.031173739151093335 0.0006803640199677546 -0.041071743727189594 0.9340415181462149 0 0 0 0
40783500 0.03424807674293524 -0.006783589477132252 0.29681575375970215 0.8861494685985433 0 0 0 0
43763000 0.031740252193005566 -0.014505206907040347 0.5944919548919264 0.720001657794511 0 0 0 0
46742500 0.025163083444127057 -0.018622102299149547 0.8122756449012366 0.4585410542220742 0 0 0 0
49722000 0.016959332707397006 -0.01771987693134367 0.921974961108311 0.13651763050897917 0 0 0 0
52701500 0.011292718857546902 -0.01136534719764076 0.9085490440343061 -0.20295953822713889 0 0 0 0
55681000 0.011189790921108202 -0.002248975742746901 0.7750663066315897 -0.5146693099219898 0 0 0 0
58660500 0.017656318244843483 0.005103229809640741 0.5382451047877899 -0.7575061034341268 0 0 0 0
61640000 0.02824118540405786 0.006192086684063362 0.23044892958070137 -0.8997518273714407 0 0 0 0
64619500 0.037137881100870414 0.000311488705600656 -0.10754819414724422 -0.9218764645198725 0 0 0 0
67599000 0.04102790244036886 -0.01137226807591395 -0.43095530783192787 -0.8220426785021334 0 0 0 0
70578500 0.036182754090858735 -0.023363073304338823 -0.6965402120342657 -0.612957845143175 0 0 0 0
73558000 0.024777192316593852 -0.028774608056288044 -0.869352964954699 -0.32265961960609335 0 0 0 0
76537500 0.012088985487246982 -0.025538501397356767 -0.9265229275383589 0.010780228096862054 0 0 0 0
79517000 0.004672511880460897 -0.015081947008677364 -0.8605269499727191 0.3421008022927368 0 0 0 0
82496500 0.006367789905062696 -0.0014796761249827278 -0.6803620150505323 0.6277951942579165 0 0 0 0
85476000 0.01682661438167743 0.007575540145784584 -0.4103072079579202 0.8290915861420385 0 0 0 0
88455500 0.031832633428811256 0.0072572875151311455 -0.08608439743679219 0.9206249442141962 0 0 0 0
91435000 0.043522127210032964 -0.0029038140904428483 0.24937867542189707 0.889586435809918 0 0 0 0
94414500 0.04530457871051109 -0.018615692955760828 0.550991058472856 0.7405312988317434 0 0 0 0
97394000 0.03706043401335643 -0.03297726904617983 0.7797196142861484 0.49324562888540274 0 0 0 0
100373500 0.021517704681489707 -0.03771650139068392 0.9049255863352468 0.18088777103319698 0 0 0 0
103353000 0.006233637242976705 -0.03145703582409976 0.9086301520413435 -0.15554370008203103 0 0 0 0
106332500 0.0001737860674703975 -0.016897393048320213 0.7919564091373499 -0.4707969183975553 0 0 0 0
109312000 0.005039584243560967 -0.002516488846426844 0.5704273345361044 -0.7232975187687279 0 0 0 0
112291500 0.01918604566620491 0.004464179692654796 0.27306023316388833 -0.8792576385480031 0 0 0 0
115271000 0.03463965145505492 -0.0008722173952928517 -0.06094939151669039 -0.918385503635905 0 0 0 0
118250500 0.042592848390229164 -0.015937953608187297 -0.38595469988640835 -0.8351896226782858 0 0 0 0
121230000 0.037793969245610744 -0.03341196401267437 -0.6596712237948036 -0.6411297615411571 0 0 0 0
124209500 0.02092345886489431 -0.04350321351148913 -0.8450770124808472 -0.36188628190804195 0 0 0 0
127189000 0.0009906841038993452 -0.039839837362349986 -0.9180362823900596 -0.03488907255812441 0 0 0 0
130168500 -0.012431408167918843 -0.023578468246787276 -0.8689197524738637 0.29601350940931653 0 0 0 0
133148000 -0.011982597032131736 -0.0018189531502474294 -0.7048837481888955 0.5876404608075126 0 0 0 0
136127500 0.0021073554743798978 0.015327026080507343 -0.44707073511206663 0.8006053276975753 0 0 0 0
139107000 0.024722027501063185 0.01897560775950901 -0.1308426505662072 0.9076681160521589 0 0 0 0
142086500 0.044300132690945404 0.0075809591954690845 0.20287262988164084 0.8935130445617689 0 0 0 0
145066000 0.051403206548498996 -0.013961672579189724 0.5093815659432015 0.7610698821493804 0 0 0 0
148045500 0.043487455638015114 -0.03458064249656052 0.7476047293808845 0.527797461465503 0 0 0 0
151025000 0.024489955167003558 -0.04373706695480498 0.8869501403125718 0.2240444898938608 0 0 0 0
154004500 0.0048024261776632125 -0.03841762548375654 0.9077923437558575 -0.10886117392888522 0 0 0 0
156984000 -0.00550812421892348 -0.02139728343323285 0.8080214902621392 -0.42706260894715226 0 0 0 0
159963500 -0.0009554435623230722 -0.0022632677673939277 0.6011434519366445 -0.6880527469282162 0 0 0 0
162943000 0.01577667993867628 0.007230982154288495 0.31394635337064636 -0.8576089874099053 0 0 0 0
165922500 0.034242493873720366 0.002708416504144113 -0.014655934934000733 -0.9129974918504858 0 0 0 0
168902000 0.044598323451142494 -0.014620456565524268 -0.34019619805959483 -0.8461666757387097 0 0 0 0
171881500 0.03952887231577047 -0.03468423134336819 -0.6207156689182511 -0.6680285605911729 0 0 0 0
174861000 0.020760969786564516 -0.04580447541553029 -0.8184285808713782 -0.4016485344306811 0 0 0 0
177840500 -0.0017519939563062248 -0.04125175498907629 -0.9079139080115035 -0.08198006040069508 0 0 0 0
180820000 -0.01567694840292793 -0.02101106374931566 -0.8764095741100261 0.24874326767112243 0 0 0 0
183799500 -0.012570734760475257 0.004221447600433257 -0.7289692490287846 0.5463615504365525 0 0 0 0
186779000 0.0074048797963328335 0.021978517201586504 -0.48432263979677215 0.7708399541231893 0 0 0 0
189758500 0.034982832460882074 0.02268913764759397 -0.17540008826848372 0.8915747878703812 0 0 0 0
192738000 0.057775352308913445 0.0038779882537783136 0.1552367102770626 0.8941778569673643 0 0 0 0
195717500 0.0635609314206199 -0.025315518668164887 0.46464598984487404 0.7790048480318347 0 0 0 0
198697000 0.04810557694787202 -0.051210600834484726 0.711981697035878 0.5602086242268443 0 0 0 0
201676500 0.019836231056166054 -0.06123478390209738 0.8648237456648965 0.26856997479239814 0 0 0 0
204656000 -0.009021329602601918 -0.05026233475974767 0.903941433617596 -0.059659333812608184 0 0 0 0
207635500 -0.02192143739786787 -0.023367337113492228 0.8229665839827744 -0.38004204787427115 0 0 0 0
210615000 -0.013538839208808877 0.0060208303374560245 0.6310345449519486 -0.6501862603704212 0 0 0 0
213594500 0.011146134787985049 0.020593260699553383 0.35528683811853545 -0.8319469256144042 0 0 0 0
216574000 0.03960314238179679 0.015793900155593774 0.03369322631752482 -0.9038404494331217 0 0 0 0
219553500 0.056950416000494164 -0.008280257863435572 -0.2923346718955103 -0.8550916671986611 0 0 0 0
222533000 0.05317967346179165 -0.037128913551831344 -0.5780399453914224 -0.6945886195414436 0 0 0 0
225512500 0.029785183375569863 -0.056272672724616314 -0.7883929699321259 -0.4415383511181186 0 0 0 0
228492000 -0.0003311833897508552 -0.053460556688911316 -0.8941728693333721 -0.12958358130081357 0 0 0 0
231471500 -0.021530046324880873 -0.0298699751526532 -0.881416656009397 0.19974809539582308 0 0 0 0
234451000 -0.02084380540713401 0.0023061033911631495 -0.7504970116355503 0.5025405684291115 0 0 0 0
237430500 0.0031232639856382614 0.026224126448852643 -0.5193724903257483 0.7370643804195591 0 0 0 0
240410000 0.03787750172609304 0.029135813825190246 -0.22037362001822683 0.8722732002998044 0 0 0 0
243389500 0.06701061959483827 0.006777731194346563 0.10598736282107346 0.8921527534473752 0 0 0 0
246369000 0.07509680915267034 -0.029358514777919297 0.4177672186585851 0.7947323134373999 0 0 0 0
249348500 0.05612262584724757 -0.06361009369419639 0.6737678757076143 0.5935150652953302 0 0 0 0
252328000 0.019531529062953603 -0.0765702132631087 0.84220080626645 0.3127945037648018 0 0 0 0
255307500 -0.017047042982212653 -0.06339855577302855 0.8992203670901429 -0.010001492897173309 0 0 0 0
258287000 -0.03604521059532598 -0.027825429603427033 0.8352974293631927 -0.3320258061568428 0 0 0 0
261266500 -0.026718780733495175 0.011223889256665981 0.659377352451294 -0.6094390098539926 0 0 0 0
264246000 0.006627912587173879 0.03322584398379633 0.3962470663295731 -0.804355747887932 0 0 0 0
267225500 0.045506703649457976 0.02839969010907914 0.0822447946185153 -0.892074977931769 0 0 0 0
270205000 0.07197880155384385 -0.0020448703922091296 -0.24145474215557475 -0.8614884499579928 0 0 0 0
273184500 0.07211795639007264 -0.04222173035679542 -0.5329373198284372 -0.7186797563183662 0 0 0 0
276164000 0.04400549536033542 -0.07358500914364487 -0.7554870403890961 -0.4815874735413705 0 0 0 0
279143500 0.003217562415580546 -0.07888145584165474 -0.8783973493187238 -0.1780569623558576 0 0 0 0
282123000 -0.03179005473981888 -0.05521894588059837 -0.882991888894298 0.14950974580561058 0 0 0 0
285102500 -0.04173996049081848 -0.015090746130354368 -0.7700454525394643 0.4560415707518798 0 0 0 0
288082000 -0.022834252234069215 0.021667999647369315 -0.5533280944226263 0.700717199551765 0 0 0 0
291061500 0.015500446417306288 0.03750466014856773 -0.2655095051795762 0.8505479718383855 0 0 0 0
294041000 0.0531964046839636 0.02298028937543761 0.056135424561447676 0.8882674167102415 0 0 0 0
297020500 0.07187068707949457 -0.01259476114981791 0.36977739618593464 0.8108100787668919 0 0 0 0
300000000 0.05286524105014314 -0.04482511754592561 0.6451937397282101 0.6204026350753463 0 0 0 0
