# Hz S RI R 50
2050000 0.006630576956273853 0.020463600967186687 0.9482895731009892 -0.25449026948199593 0 0 0 0
5029500 0.028966832987158603 0.027425362808982678 0.7877238190204615 -0.5760434855509817 0 0 0 0
8009000 0.049960241698741754 0.019426157962213794 0.5259491925653845 -0.8180926602403628 0 0 0 0
10988500 0.06100532592064171 -0.0012792701194381483 0.19611591271712506 -0.9498332388928017 0 0 0 0
13968000 0.05625943772509669 -0.024694391635666002 -0.15775180330728852 -0.9555030087280604 0 0 0 0
16947500 0.03753562536001761 -0.04039885790997472 -0.49045883123319284 -0.8338246591563182 0 0 0 0
19927000 0.013167120575536002 -0.04117294332474263 -0.7564176671215894 -0.6005283997993551 0 0 0 0
22906500 -0.005615116663128869 -0.02666736623536982 -0.9207407099023442 -0.2876881639958303 0 0 0 0
25886000 -0.011159892975991272 -0.004215497416448001 -0.9607489421024955 0.06260293864245244 0 0 0 0
28865500 -0.0008448104181730145 0.016446666873481376 -0.872705913655907 0.4029766681334361 0 0 0 0
31845000 0.02016101558532014 0.025636748169365484 -0.6683909449047306 0.6881271317831288 0 0 0 0
34824500 0.041283351127768514 0.017691228266484383 -0.3766718660473446 0.8811493206255684 0 0 0 0
37804000 0.05277733281603147 -0.0012437352340820666 -0.0354367885804049 0.9566253743183751 0 0 0 0
40783500 0.04889393813911783 -0.02337252418853877 0.3100787085584093 0.904726193756041 0 0 0 0
43763000 0.031428338094515715 -0.03757407862263949 0.6139753983112403 0.7326103197162633 0 0 0 0
46742500 0.00946901515519647 -0.03730088022526955 0.8354375301423272 0.46274447538311037 0 0 0 0
49722000 -0.007103536023240782 -0.02265024032624441 0.9449042153250217 0.1313957720881915 0 0 0 0
52701500 -0.010112773710713053 -0.0010816848505995316 0.927741607307462 -0.21635016870327234 0 0 0 0
55681000 0.002447783995797118 0.017083921419118995 0.7872542401054602 -0.5340418759610345 0 0 0 0
58660500 0.02339693894831364 0.022477800983219026 0.5424417027068672 -0.7799439520392857 0 0 0 0
61640000 0.042807425846662125 0.01277374528873662 0.2259944792032653 -0.9220039205921658 0 0 0 0
64619500 0.05097255856268931 -0.007525893566932914 -0.11985151718778496 -0.9413914771569908 0 0 0 0
67599000 0.044477895200035276 -0.029121347161476956 -0.4499475615047789 -0.8349591872427068 0 0 0 0
70578500 0.025431896151939186 -0.04029312500295473 -0.7194564843136801 -0.617946338770756 0 0 0 0
73558000 0.003935384496150537 -0.03674316143050783 -0.8921025288731368 -0.3188675186599582 0 0 0 0
76537500 -0.009857220819725832 -0.01934316341956247 -0.9463556866243436 0.022842567082758065 0 0 0 0
79517000 -0.00868779688840329 0.0032127981230155945 -0.8740015112788636 0.36115442516420787 0 0 0 0
82496500 0.007702654208132457 0.01798402147528923 -0.685900832680633 0.6501636657864398 0 0 0 0
85476000 0.030598444561349438 0.01889757416464636 -0.40766575399806715 0.8524949585202269 0 0 0 0
88455500 0.048792363572438116 0.0041944019603126935 -0.07490503883253001 0.9403495586835853 0 0 0 0
91435000 0.053317647694321846 -0.01909341862576502 0.26717756943488125 0.9038807162997611 0 0 0 0
94414500 0.040942743883253946 -0.04038452246836962 0.5734989177169549 0.747201022029959 0 0 0 0
97394000 0.018585082163110864 -0.04889935141815384 0.8027826997240328 0.49059528162500177 0 0 0 0
100373500 -0.004454690993571847 -0.040467831610729296 0.9252219958271682 0.17003125993621698 0 0 0 0
103353000 -0.014892541376093575 -0.019877451025200037 0.9234991182176234 -0.17325176191633707 0 0 0 0
106332500 -0.009523983954306908 0.0027694392012655397 0.7992560942244875 -0.4923236026236644 0 0 0 0
109312000 0.010674984260190938 0.01549911155423915 0.5688721853845898 -0.7461739782260629 0 0 0 0
112291500 0.03354643666368253 0.011368352671145847 0.2631362867286302 -0.8997369290313857 0 0 0 0
115271000 0.048142044816126814 -0.008649959930550332 -0.07795366520859194 -0.9341360892557797 0 0 0 0
118250500 0.04638719148086323 -0.03373332511299673 -0.4075855265654031 -0.8432228172435355 0 0 0 0
121230000 0.027462049726604477 -0.05157700766429867 -0.6822989309794336 -0.640399309564215 0 0 0 0
124209500 0.00026745942236063166 -0.05356327146279448 -0.8659282430173992 -0.35271882711174096 0 0 0 0
127189000 -0.021633748290009875 -0.03635798578478942 -0.9341950388321645 -0.01903426156696331 0 0 0 0
130168500 -0.028203342679453715 -0.008982419577155346 -0.8780738147159095 0.31699464784426057 0 0 0 0
133148000 -0.014848666754313237 0.015903397461091227 -0.7053314132457603 0.6100733705782603 0 0 0 0
136127500 0.010943352925128142 0.026484505091422146 -0.43957464012954295 0.8223204425612823 0 0 0 0
139107000 0.037879623455439215 0.01812780192345976 -0.1153604283491229 0.9246469079555076 0 0 0 0
142086500 0.05188608777880664 -0.004984541132026831 0.2235079783657056 0.9038881314516113 0 0 0 0
145066000 0.047085466199071946 -0.031579879247439824 0.5326576335216319 0.7626016324324356 0 0 0 0
148045500 0.027510048554523166 -0.04784242337235816 0.7697004677118696 0.5207845831667631 0 0 0 0
151025000 0.00254029140948027 -0.04549152313857575 0.9042980781070408 0.20953539068645693 0 0 0 0
154004500 -0.014593967721696837 -0.0268839440302533 0.919064307560967 -0.1291735350746602 0 0 0 0
156984000 -0.013546596922247847 -0.002021195356266933 0.8109266854143938 -0.45027841637009336 0 0 0 0
159963500 0.004218148487984631 0.01583199432511206 0.5949508685251753 -0.7108166025690764 0 0 0 0
162943000 0.030313562312248264 0.015528171087435625 0.30028693810474955 -0.8767044658478114 0 0 0 0
165922500 0.049967670942998074 -0.0014554338462304767 -0.03418111636501418 -0.9253801094153086 0 0 0 0
168902000 0.052245521985876106 -0.02891511496767034 -0.3633978969742802 -0.8506225938828732 0 0 0 0
171881500 0.0354608800782498 -0.05019962303550161 -0.6433013588361233 -0.6638059207593395 0 0 0 0
174861000 0.0075220664939348375 -0.054634189383511535 -0.837919038120981 -0.38860081322762363 0 0 0 0
177840500 -0.017162174261802984 -0.03755584074469128 -0.9215012046486949 -0.06292982753309065 0 0 0 0
180820000 -0.024475867713749076 -0.007244892463642043 -0.8823954660302699 0.2723081981881003 0 0 0 0
183799500 -0.008635843495475208 0.020987520413630275 -0.7254926226016647 0.5697621585379379 0 0 0 0
186779000 0.023117207392841066 0.03360695814675625 -0.47194302189241333 0.7912804659046492 0 0 0 0
189758500 0.057763632535734216 0.02166064004863405 -0.1561274367852541 0.9057179068605781 0 0 0 0
192738000 0.07709770750853764 -0.00878088847098968 0.17819039684248736 0.8998719069498107 0 0 0 0
195717500 0.07277853534339707 -0.04600941897010225 0.48701052710474996 0.7755506438143496 0 0 0 0
198697000 0.045584628159381954 -0.07161513097817546 0.7316354306019537 0.5499624373631072 0 0 0 0
201676500 0.00942439897449361 -0.07347520644273423 0.880244963554632 0.25135121859144743 0 0 0 0
204656000 -0.018624315232130467 -0.05181144982770173 0.912315246483621 -0.08115998875899971 0 0 0 0
207635500 -0.02471265022228625 -0.0186584828019808 0.8229779297498581 -0.4037377501562241 0 0 0 0
210615000 -0.006879164075265522 0.009902147621637302 0.6220677701746343 -0.6722433951985771 0 0 0 0
213594500 0.024298752977379056 0.018481588142424024 0.3390394479019072 -0.8496262335446626 0 0 0 0
216574000 0.05256017169327022 0.003469915460607582 0.011728917398271952 -0.9138524135337208 0 0 0 0
219553500 0.06238694309165266 -0.026587424605987835 -0.3157739482755936 -0.856743452708356 0 0 0 0
222533000 0.047338346515193475 -0.056263412175749546 -0.6009049925916748 -0.6870718800157389 0 0 0 0
225512500 0.015241103024935027 -0.0676524618249053 -0.8069492225520705 -0.4263690640694463 0 0 0 0
228492000 -0.01585757833935273 -0.05346115878532084 -0.9059550466838048 -0.10821990080331102 0 0 0 0
231471500 -0.03055156202674547 -0.019470603351028723 -0.8849705563309386 0.2242280892154767 0 0 0 0
234451000 -0.01794885474756259 0.01644154636427646 -0.7433862964832144 0.5261805986186292 0 0 0 0
237430500 0.01657933885929756 0.03731843595590273 -0.5044334995803262 0.7562500843345722 0 0 0 0
240410000 0.05703289331180001 0.028676986190152107 -0.19973577095261683 0.8841229628721545 0 0 0 0
243389500 0.08447658914928842 -0.003357063101216696 0.1299485901387805 0.8950703191740268 0 0 0 0
246369000 0.08341786270107819 -0.04697163785961751 0.4402074802597065 0.7897262711980241 0 0 0 0
249348500 0.05459687016814617 -0.07824271699495358 0.6938549398946477 0.5803270290398116 0 0 0 0
252328000 0.011048004343961434 -0.08365420375187123 0.8563961028986244 0.2935108120099126 0 0 0 0
255307500 -0.024790073560518915 -0.0589056526817044 0.9048056127077916 -0.03367282601301214 0 0 0 0
258287000 -0.03494944532974421 -0.0158870508925689 0.8315569611517524 -0.3564552544556148 0 0 0 0
261266500 -0.014303317412521945 0.022871348291673414 0.6474595555411016 -0.6313350625159698 0 0 0 0
264246000 0.027710129057131525 0.038201514469592183 0.3767436676961056 -0.8204100557848909 0 0 0 0
267225500 0.06868296928479604 0.02265911065031531 0.05846473893934658 -0.8988411150965285 0 0 0 0
270205000 0.08920854804113022 -0.016886344364678722 -0.26536980378787 -0.8611163360620543 0 0 0 0
273184500 0.07768752279891313 -0.061306571158070776 -0.5557224206894308 -0.7082689809576158 0 0 0 0
276164000 0.04058126284975 -0.08678411968497844 -0.7724505953172913 -0.46334203361195175 0 0 0 0
279143500 -0.006728435489357942 -0.08007618881941347 -0.8880559112741081 -0.15537042891296274 0 0 0 0
282123000 -0.0366278791050047 -0.04590694673178463 -0.8840128946294353 0.17451263706720854 0 0 0 0
285102500 -0.035511602640126386 0.0006488090819280518 -0.7608232726513721 0.48030622650898036 0 0 0 0
288082000 -0.004843056981386525 0.035786153674580774 -0.5361464551523343 0.7187651698931727 0 0 0 0
291061500 0.04180957210477728 0.041705349557393155 -0.24266851997585495 0.8611632729875437 0 0 0 0
294041000 0.07980963127070398 0.01535999608504136 0.08063637021158156 0.8896244150012927 0 0 0 0
297020500 0.09081465953172659 -0.028833709485898026 0.3932933516354497 0.8032397631951953 0 0 0 0
300000000 0.04839918423488833 -0.08609367353843617 0.6535421708705226 0.6151096633614193 0 0 0 0
