# Hz S RI R 50
2050000 0.030522757769264382 0.008054194817480334 0.9231077825823797 -0.24772981192660767 0 0 0 0
5029500 0.0379087780565624 0.0031079189050902236 0.7681605058703772 -0.5599543018817296 0 0 0 0
8009000 0.040442049224413 -0.0032171486004088246 0.5141394974240177 -0.7960530945123147 0 0 0 0
10988500 0.03886599469525117 -0.010254422853834143 0.19343867636151668 -0.9253083792922719 0 0 0 0
13968000 0.03451292617002387 -0.01558037549885927 -0.15173250746399425 -0.9314232303386408 0 0 0 0
16947500 0.028341354405667717 -0.018692147282276184 -0.4752112367740214 -0.8133009473397936 0 0 0 0
19927000 0.02162161662214478 -0.01824886775277924 -0.7348970032303352 -0.5875452924381366 0 0 0 0
22906500 0.01631650806268849 -0.014723056411080473 -0.8952266199827469 -0.2844050106830316 0 0 0 0
25886000 0.012984880359623014 -0.009257934461434464 -0.9363379498098617 0.05568533419703097 0 0 0 0
28865500 0.01339908924710648 -0.002763174370236949 -0.8529810743119516 0.38743270656051393 0 0 0 0
31845000 0.017549149159302786 0.00204679927864022 -0.656512572223801 0.6668120200052151 0 0 0 0
34824500 0.023798722699580013 0.004019807879443147 -0.37340114727761775 0.8571246189186736 0 0 0 0
37804000 0.03005088480053275 0.0014202549129951265 -0.04139627117007441 0.9326948512748886 0 0 0 0
40783500 0.03387579131497737 -0.005334722001320937 0.295871991115312 0.8852826760525686 0 0 0 0
43763000 0.03208958614026091 -0.013236661431909684 0.5935081652396106 0.7198907659470453 0 0 0 0
46742500 0.025527442753388578 -0.017817337161788436 0.8113968675004146 0.45864577206843626 0 0 0 0
49722000 0.017887361158852977 -0.01757917845944877 0.9208911027009324 0.13682995980420584 0 0 0 0
52701500 0.011801990027890952 -0.011435561179674744 0.9079842953748427 -0.20227680838630935 0 0 0 0
55681000 0.01098762666157415 -0.002948995856673971 0.7742302680969751 -0.5137322249567872 0 0 0 0
58660500 0.016941847975371207 0.004562909034554987 0.5378667355806064 -0.7561829357080122 0 0 0 0
61640000 0.026962972820559778 0.006479115703018854 0.23069336971631166 -0.8985655200904923 0 0 0 0
64619500 0.03622248151754322 0.0012559975216609222 -0.10693751957310385 -0.9209594379715083 0 0 0 0
67599000 0.04062765417705313 -0.009929293491444245 -0.4297898652246451 -0.8214581886573022 0 0 0 0
70578500 0.036867347543851806 -0.021662116488228206 -0.6953411140961698 -0.6129146087078439 0 0 0 0
73558000 0.025622620280349652 -0.028060987872478474 -0.8682867507416502 -0.3231189595338814 0 0 0 0
76537500 0.012590019886692994 -0.025534498886071535 -0.9257922950435361 0.009910223059706789 0 0 0 0
79517000 0.004905220684750739 -0.01568583039775261 -0.8603803121482202 0.34136207585399475 0 0 0 0
82496500 0.005619271982703653 -0.00182893008736609 -0.6805339802969147 0.626696858031045 0 0 0 0
85476000 0.0156288731219714 0.00789373396502651 -0.41072056227111203 0.828310039886917 0 0 0 0
88455500 0.03059175882849649 0.008222480344805827 -0.08677538255092601 0.9199425833754489 0 0 0 0
91435000 0.04280320189506589 -0.0015254901511840536 0.2482783061662342 0.8891546771752756 0 0 0 0
94414500 0.04551496770374657 -0.01764779372535398 0.5500708454555162 0.7404118500151737 0 0 0 0
97394000 0.03747474961622327 -0.03185467818990668 0.7787382423561364 0.4936202805044075 0 0 0 0
100373500 0.022016791845929567 -0.03786304676171454 0.904422901008244 0.18154516656989997 0 0 0 0
103353000 0.0063932002101048675 -0.03199030638158263 0.9083547588950522 -0.15471897000415122 0 0 0 0
106332500 -0.0007426418836023845 -0.01718487034604019 0.791942320288914 -0.46991279444427425 0 0 0 0
109312000 0.0039244943488645975 -0.0024653630881427777 0.5704285266575513 -0.7226648009236365 0 0 0 0
112291500 0.018212143818792315 0.005225280233558503 0.2736677011856699 -0.878437772094441 0 0 0 0
115271000 0.034064839115428985 0.0003542819981251032 -0.0601084495025825 -0.918063139077977 0 0 0 0
118250500 0.04225662488325765 -0.014707544719196034 -0.3850734450111392 -0.8352009788004957 0 0 0 0
121230000 0.0378606098439949 -0.03233541323338617 -0.6589576879050991 -0.6416244622337656 0 0 0 0
124209500 0.021498083164220107 -0.04352646833176884 -0.8444270961962935 -0.36262079696209687 0 0 0 0
127189000 0.0010993525723267906 -0.040077996850203614 -0.9180273916309953 -0.03583814812855552 0 0 0 0
130168500 -0.012653034272370666 -0.02405857618254364 -0.8687437553272095 0.2953500199707593 0 0 0 0
133148000 -0.01336762562060653 -0.002010053260239063 -0.7049778327097344 0.5868303379959166 0 0 0 0
136127500 0.0012143711860056175 0.01591973444627503 -0.44778492360633976 0.799905464702416 0 0 0 0
139107000 0.023747724113538746 0.019849138973191762 -0.13164572866943636 0.9074235643322444 0 0 0 0
142086500 0.043855321618564376 0.00829813213234822 0.2020726738743945 0.8936287778635027 0 0 0 0
145066000 0.05199562383512506 -0.013187136284106976 0.5086778556756368 0.7612978185840642 0 0 0 0
148045500 0.043855752330208324 -0.03437798530687668 0.7469524727829486 0.5281357530842267 0 0 0 0
151025000 0.024838274155259108 -0.04449943968085292 0.8859839965583522 0.22490623605018514 0 0 0 0
154004500 0.004570429437591519 -0.038614732995327736 0.907539339563051 -0.10807397059709242 0 0 0 0
156984000 -0.0060296919080461715 -0.02200890888973014 0.8079837884554149 -0.4264010650184879 0 0 0 0
159963500 -0.0012169148765713673 -0.0023219895906150916 0.6016302081461509 -0.6875785178124901 0 0 0 0
162943000 0.014596992863141388 0.007426633353028151 0.3147448903872097 -0.8573174623756369 0 0 0 0
165922500 0.03370450399557772 0.0027754569131923034 -0.013956923627918755 -0.9127805063316459 0 0 0 0
168902000 0.04396783026006669 -0.014189644621348765 -0.33985442379421854 -0.8464321005178992 0 0 0 0
171881500 0.0394309104160483 -0.034428335094399985 -0.6200585344466523 -0.6684745821385375 0 0 0 0
174861000 0.020927194810181793 -0.046133767264057976 -0.818086294076508 -0.4020573737588088 0 0 0 0
177840500 -0.0020073290260982134 -0.04174516502761997 -0.908022902019061 -0.08263642236204329 0 0 0 0
180820000 -0.01643623433657141 -0.02182742565300441 -0.8767999621134638 0.24788966253623437 0 0 0 0
183799500 -0.013666662558064766 0.003669454814720558 -0.7293450434829063 0.5457129018918581 0 0 0 0
186779000 0.005877062982908223 0.02216411296778548 -0.4849418588039776 0.770524262258464 0 0 0 0
189758500 0.034727053806738906 0.022778476635719417 -0.17633063951260608 0.8915506854346753 0 0 0 0
192738000 0.05763199407503659 0.004437379466714642 0.15469902742388383 0.8943776239958686 0 0 0 0
195717500 0.06335582363549443 -0.024938879242007703 0.4639450901746446 0.7790639592263399 0 0 0 0
198697000 0.04820933991443406 -0.051806005028399875 0.7115468416519041 0.5606312153505245 0 0 0 0
201676500 0.019849166601486303 -0.061929824214388536 0.8647912202187292 0.2691902405704027 0 0 0 0
204656000 -0.00870739130703339 -0.05107157685173554 0.904081258028102 -0.059049041285449605 0 0 0 0
207635500 -0.02235971363894358 -0.024236257335008532 0.8233212195117106 -0.3793682357980898 0 0 0 0
210615000 -0.014779196809956928 0.005012334700467605 0.6316390847697386 -0.6497394040362103 0 0 0 0
213594500 0.010016699246872953 0.02071073479413283 0.35613623383037585 -0.8323168939440724 0 0 0 0
216574000 0.03892466739781616 0.015151188128757464 0.03406661560319459 -0.9038870507953909 0 0 0 0
219553500 0.056560803552141374 -0.00824693653180272 -0.2918042862301566 -0.8554026649424707 0 0 0 0
222533000 0.053314203488547575 -0.03717912515865454 -0.5781601486321383 -0.6949294825818041 0 0 0 0
225512500 0.030293294866743595 -0.056580955814820574 -0.7878843291332369 -0.4420391553367209 0 0 0 0
228492000 -0.00020478221103060936 -0.05475702037994928 -0.8944907809326513 -0.12975437519607083 0 0 0 0
231471500 -0.021681527481037775 -0.03135722751886394 -0.881816107024489 0.19943617815991524 0 0 0 0
234451000 -0.021825081823288812 0.0012098220670858594 -0.7508964596768968 0.5026975404329377 0 0 0 0
237430500 0.002451479994491247 0.025514607882269 -0.5197998441249659 0.7370477944243237 0 0 0 0
240410000 0.036872536824046453 0.028528752216297432 -0.22118048895790898 0.8720897984797964 0 0 0 0
243389500 0.0663025531275996 0.006707212208110347 0.10540087448172089 0.8921606136943123 0 0 0 0
246369000 0.07510294296824278 -0.030104619872290652 0.4172837581927577 0.7952610859279821 0 0 0 0
249348500 0.0572604724666455 -0.064007356712633 0.6735136435429567 0.5937239706545708 0 0 0 0
252328000 0.02021333662182676 -0.07814606163020776 0.8422104604205704 0.3130288238456551 0 0 0 0
255307500 -0.017081408412455364 -0.06453702241349717 0.8991051519418248 -0.00953316246919966 0 0 0 0
258287000 -0.035766261613338145 -0.029476404072578396 0.8354602980771982 -0.33212019109762714 0 0 0 0
261266500 -0.026907213519457285 0.009642244703538704 0.6593147002259659 -0.6096698337787142 0 0 0 0
264246000 0.005457818909643913 0.03215177143103403 0.3968784486541049 -0.8045709312918904 0 0 0 0
267225500 0.04507134055189979 0.027423644934711486 0.08223866800935907 -0.8919546490971623 0 0 0 0
270205000 0.07190720471562849 -0.0025899870090820053 -0.2412049429478064 -0.8614979589477068 0 0 0 0
273184500 0.07223683305834684 -0.042804023906388655 -0.5328685891527335 -0.7188559680193067 0 0 0 0
276164000 0.04473259661954867 -0.07484759152708574 -0.7553604475157597 -0.4815759538352938 0 0 0 0
279143500 0.004032779381269907 -0.08019540551549938 -0.8785329497792346 -0.17848354557882024 0 0 0 0
282123000 -0.031510421116216714 -0.056565216997725626 -0.8834005153738577 0.14896443855337832 0 0 0 0
285102500 -0.04189934853067426 -0.01582014215174886 -0.7700902926288385 0.45543999219410425 0 0 0 0
288082000 -0.022608202817054338 0.02069124891329245 -0.5538529316164991 0.6999905864539441 0 0 0 0
291061500 0.015434404086664109 0.03602216058829568 -0.2653343264351384 0.8503470152322439 0 0 0 0
294041000 0.05431044264444404 0.02160107708990505 0.05563666102715943 0.8888885452608856 0 0 0 0
297020500 0.07206632530662627 -0.013486091548784131 0.36955621378191017 0.8109163257163634 0 0 0 0
300000000 0.06886020394354736 -0.025491072265554176 0.6393763457866617 0.6204514394420495 0 0 0 0
