# Hz S RI R 50
2050000 0.03255214476192605 0.007494994176841766 0.9212060585178437 -0.2476398258019527 0 0 0 0
5029500 0.03859139327878598 0.0015082553573423346 0.7665268353970738 -0.5588410292951758 0 0 0 0
8009000 0.0397119629540105 -0.005216925759476024 0.513118711368695 -0.794383819156618 0 0 0 0
10988500 0.03685846465532031 -0.011149711728432276 0.19309602152380212 -0.9234809264099482 0 0 0 0
13968000 0.0330332954242925 -0.014884740274869149 -0.15109516057320063 -0.9295569177373679 0 0 0 0
16947500 0.027916800134759667 -0.016669694462369714 -0.4739564402325477 -0.812017576298085 0 0 0 0
19927000 0.022744219650862117 -0.016625751885165595 -0.7330480436805918 -0.5870267290969174 0 0 0 0
22906500 0.017984708262444676 -0.013987649125247106 -0.893069592688688 -0.28437226510096114 0 0 0 0
25886000 0.01470971298060773 -0.009716647693438782 -0.9347797269713692 0.054811215400635924 0 0 0 0
28865500 0.014474735509185939 -0.00421331463541903 -0.852096489102755 0.38622941872258 0 0 0 0
31845000 0.017307720915962145 0.00038088943602842954 -0.6557526137919963 0.6653542196595378 0 0 0 0
34824500 0.022157978819027393 0.0032085110076504222 -0.37361870704639605 0.8552317296000802 0 0 0 0
37804000 0.028567884313452085 0.0017468089224240099 -0.04223283441638163 0.9311084081458809 0 0 0 0
40783500 0.033034930178762426 -0.0032480508500630115 0.2941811852134966 0.8839483161701904 0 0 0 0
43763000 0.03331706515340891 -0.011089674883581984 0.5907787163617766 0.7195430771126646 0 0 0 0
46742500 0.028274464588939854 -0.01910048936097957 0.8094805256850941 0.46141720253749674 0 0 0 0
49722000 0.0194533577001247 -0.01480844119325198 0.9191054839888961 0.13544647500035623 0 0 0 0
52701500 0.013753029446320068 -0.012331196258017842 0.9062887528363911 -0.2011818487718077 0 0 0 0
55681000 0.011405508451438607 -0.004594446912669318 0.7734274800622601 -0.5121400459423583 0 0 0 0
58660500 0.016180356518343895 0.0035136549704064407 0.5379825529401598 -0.7545395746896606 0 0 0 0
61640000 0.025506944725351373 0.006646052797776402 0.23127078923178684 -0.8969668768528956 0 0 0 0
64619500 0.03535534696303477 0.0024079922592616207 -0.10553195565986882 -0.9198031766513739 0 0 0 0
67599000 0.0407114483765979 -0.008170162978487383 -0.42817519087661565 -0.8207223891407768 0 0 0 0
70578500 0.0382467677390756 -0.02006982179710766 -0.6935788073622735 -0.6130957764463141 0 0 0 0
73558000 0.02755879412371453 -0.027448915705374062 -0.8666325952005525 -0.32415284359044555 0 0 0 0
76537500 0.014290856897626212 -0.026267052984729568 -0.9246764749021766 0.008643343346527891 0 0 0 0
79517000 0.005437960025651252 -0.016459543047937193 -0.8595773583659065 0.3398608473703611 0 0 0 0
82496500 0.004842045116092995 -0.003076316760852842 -0.6807342982376622 0.6251618992736703 0 0 0 0
85476000 0.014612631307968523 0.007601667879394078 -0.4116437407432806 0.8266662104842555 0 0 0 0
88455500 0.029428701496876496 0.009165076906662753 -0.08817483164324783 0.9187397110949944 0 0 0 0
91435000 0.04245436597752661 0.00023596291130640348 0.24654186391065264 0.8887088275220179 0 0 0 0
94414500 0.04640121611524912 -0.015608244574656998 0.5482273846504364 0.7406762841892924 0 0 0 0
97394000 0.03896342567272769 -0.031001631198477916 0.7772215152409445 0.49442182376819394 0 0 0 0
100373500 0.02310097000569505 -0.0379076263043266 0.9028267791805362 0.18298910760329143 0 0 0 0
103353000 0.006996695182867856 -0.03253180273379825 0.9077333119759887 -0.15307768834609822 0 0 0 0
106332500 -0.0007059041679580804 -0.01799991482547011 0.7920789566764194 -0.46823820832526025 0 0 0 0
109312000 0.003119521857303984 -0.0028767676311044037 0.5711948507136291 -0.7210232675442052 0 0 0 0
112291500 0.017192041226843577 0.005822783324505644 0.2748416726532168 -0.8775589622038396 0 0 0 0
115271000 0.03362958570891539 0.0017313202486834325 -0.05858272968973686 -0.9174472352237787 0 0 0 0
118250500 0.04280382912343103 -0.01298812641156783 -0.3833659305865721 -0.8352464234543917 0 0 0 0
121230000 0.039083678489470496 -0.03097551981128313 -0.6574534183389538 -0.6423043264812313 0 0 0 0
124209500 0.022939327930172157 -0.042713249740878395 -0.8433995540576628 -0.3637356014248716 0 0 0 0
127189000 0.002025903468989655 -0.04058432308947873 -0.9175855083564366 -0.03675903402457977 0 0 0 0
130168500 -0.01228274008227727 -0.024944155516145535 -0.8686202082442468 0.29379407865859447 0 0 0 0
133148000 -0.0134607586418496 -0.0026444091332965642 -0.7057420119445951 0.5853037393270767 0 0 0 0
136127500 0.00014199355894324917 0.015663941471281435 -0.4487071001783328 0.7990660898154393 0 0 0 0
139107000 0.022934203932229936 0.020760408821456394 -0.1329990106403933 0.9068004674103641 0 0 0 0
142086500 0.043972515685258735 0.01004770748767172 0.20061021147728725 0.8935653235722157 0 0 0 0
145066000 0.052580873427624436 -0.012017157252535847 0.5073036434729756 0.7617677385960099 0 0 0 0
148045500 0.04506542565133623 -0.03355109524706066 0.7460483689233212 0.529318925232985 0 0 0 0
151025000 0.025656875947652664 -0.04363267548027823 0.8853767038257532 0.22632063301721334 0 0 0 0
154004500 0.00520128953682911 -0.03930270614280318 0.9071040055058083 -0.10680311369404483 0 0 0 0
156984000 -0.006218179437485107 -0.02250744619451676 0.8085456266085383 -0.4246895231734154 0 0 0 0
159963500 -0.0023091481998860314 -0.0027802008700149095 0.6024148100186195 -0.6863293266696102 0 0 0 0
162943000 0.013555423727718738 0.008024448484235948 0.31608257302988924 -0.8565592977898338 0 0 0 0
165922500 0.03297136751429011 0.004142680787771734 -0.012556481382832115 -0.9125796411435426 0 0 0 0
168902000 0.04449860993402249 -0.012812880665079093 -0.337975781008378 -0.8470931930735163 0 0 0 0
171881500 0.04016937519874525 -0.03345760618430707 -0.6188541808393252 -0.6694019360241465 0 0 0 0
174861000 0.02186665433290219 -0.04603349844920191 -0.817354080931859 -0.4035735494930367 0 0 0 0
177840500 -0.0019091833098601612 -0.04191016930175507 -0.9076346126579538 -0.0840587969272685 0 0 0 0
180820000 -0.016713155734671463 -0.022259954422214775 -0.8769402536516906 0.24650234768750484 0 0 0 0
183799500 -0.014378683885256266 0.0032109344872729645 -0.7299859735347091 0.5446304349836742 0 0 0 0
186779000 0.005229303165610655 0.022051773375400065 -0.486040131781509 0.7696400355719102 0 0 0 0
189758500 0.0336877758767711 0.02330996514231747 -0.1779187305885855 0.891092442553889 0 0 0 0
192738000 0.05739962271277987 0.005404796218297459 0.15344796696455687 0.8944364616544116 0 0 0 0
195717500 0.06330671458883624 -0.02417839713413115 0.46262047161254 0.7794598100773109 0 0 0 0
198697000 0.049025300680290415 -0.05092239907171432 0.7105139912793922 0.5617449340929003 0 0 0 0
201676500 0.019984107583948592 -0.0619790395943336 0.864194982704344 0.27025208756710867 0 0 0 0
204656000 -0.008778783679541307 -0.05137839127421395 0.90409253195923 -0.05790451655082156 0 0 0 0
207635500 -0.02310912343873296 -0.02464059806138715 0.8236264046504093 -0.37815865112612895 0 0 0 0
210615000 -0.015972664608359756 0.00476954956295369 0.6325761457154374 -0.6486181310052652 0 0 0 0
213594500 0.009254057959584283 0.02055014032234671 0.35728584134096075 -0.8317211601386054 0 0 0 0
216574000 0.03725044862409808 0.015959994410859005 0.03576992425176934 -0.9035368351476138 0 0 0 0
219553500 0.05628483627830777 -0.006980206240042328 -0.2899884108386344 -0.855782840826048 0 0 0 0
222533000 0.0530762441711927 -0.03626202684840487 -0.5770679418332005 -0.6957730795753663 0 0 0 0
225512500 0.03024736118739399 -0.056843293920871035 -0.7875909900322708 -0.44349128779320884 0 0 0 0
228492000 -0.0006005306831741027 -0.0548034146516359 -0.8939935640177135 -0.13136358442623797 0 0 0 0
231471500 -0.022121145699490894 -0.03215746105356462 -0.8819259891022353 0.19802994224622342 0 0 0 0
234451000 -0.022370165155006384 0.0007965796713050661 -0.751506585749336 0.5012290594855487 0 0 0 0
237430500 0.0007361805535124096 0.025034479817439583 -0.5211262865509421 0.7361683204846339 0 0 0 0
240410000 0.03526941553508659 0.02881243292956166 -0.2220515322850483 0.872121811543951 0 0 0 0
243389500 0.06562375024303656 0.0070197316047854695 0.10432953996423572 0.8925014904918511 0 0 0 0
246369000 0.0743060046421318 -0.029603435345161654 0.4160438026026117 0.7958856213073712 0 0 0 0
249348500 0.055977832478480524 -0.06361633148594485 0.6730494633707284 0.5945771022782422 0 0 0 0
252328000 0.019736964876143393 -0.07832596864680383 0.8416973051595678 0.3142795247099986 0 0 0 0
255307500 -0.01774867487195796 -0.06566964748959842 0.898976185279322 -0.008267922040425436 0 0 0 0
258287000 -0.03740471843741002 -0.029801712448047437 0.8361162630788558 -0.33076996981282697 0 0 0 0
261266500 -0.0289826867332223 0.009616672955487007 0.6603016563337336 -0.608472917635535 0 0 0 0
264246000 0.003901949619619694 0.03264453623568394 0.39745012978675415 -0.803801751938952 0 0 0 0
267225500 0.04371159852325404 0.028034466229820604 0.08414271077536559 -0.8919428975439723 0 0 0 0
270205000 0.07031472923089943 -0.0017812833057416798 -0.24016637564875826 -0.8618139676542448 0 0 0 0
273184500 0.07156184073883716 -0.04293459864634384 -0.5319109800950225 -0.719672219636247 0 0 0 0
276164000 0.043631405737910356 -0.07493421311798472 -0.7552900322061767 -0.48258141428916207 0 0 0 0
279143500 0.002714679744086371 -0.08082004752963137 -0.8779122250163939 -0.17986068447837789 0 0 0 0
282123000 -0.03274388862119825 -0.057064260288465785 -0.8837011945542274 0.14768267231100077 0 0 0 0
285102500 -0.04295820974069743 -0.01723265628887894 -0.7711018345879062 0.4549773917795917 0 0 0 0
288082000 -0.024537206171628006 0.020164784958965797 -0.5551847045718282 0.6996554351982821 0 0 0 0
291061500 0.013070521985451347 0.0360582465534164 -0.26690003463909234 0.8502272360080827 0 0 0 0
294041000 0.051993767900382945 0.022246640784166764 0.054240774070902865 0.8885734872757837 0 0 0 0
297020500 0.07100983453746493 -0.012739337441076292 0.3685548379654379 0.8112120483787707 0 0 0 0
300000000 0.06831031078129016 -0.025860043609513873 0.640182785809894 0.6189588564864023 0 0 0 0
