# Hz S RI R 50
2050000 0.016913008951341454 0.014981395914593439
5029500 0.03357025687143718 0.016674243931232048
8009000 0.04683778456303108 0.007635786544080065
10988500 0.05125699581755742 -0.00817889789325012
13968000 0.044360684890859876 -0.023970386347336375
16947500 0.02892844665382461 -0.03216153306192869
19927000 0.01190444461337585 -0.02885329166153991
22906500 0.001069357910417793 -0.01624320960624146
25886000 0.0013365847588246754 -0.000511421049683287
28865500 0.011459382765756533 0.011125628108954323
31845000 0.0259376849474699 0.012672523468380707
34824500 0.03794054700109564 0.0037589844582397256
37804000 0.04055883680482863 -0.010276858033794547
40783500 0.033236544137659224 -0.022284467591381727
43763000 0.019880433781892196 -0.02664161516167481
46742500 0.007191818725039068 -0.021003689531311542
49722000 0.0018804269812797085 -0.008052159492780115
52701500 0.006342937937418383 0.004724762892187287
55681000 0.018599091313298295 0.010742508147314247
58660500 0.03180802389725196 0.006982444566705406
61640000 0.03879328514204618 -0.004698510657608874
64619500 0.03700456334191712 -0.018089743990462318
67599000 0.02658173458156002 -0.02701548029213875
70578500 0.013449977835687717 -0.026210233070307502
73558000 0.003929605498107859 -0.01743129692369667
76537500 0.003945538458724517 -0.004481264529605224
79517000 0.012532385719069717 0.004859785515961803
82496500 0.025608726479327028 0.005408508868532511
85476000 0.03671495194449162 -0.0029436261964290267
88455500 0.039328205624972634 -0.016773271402400435
91435000 0.032344711423810325 -0.028960663061192576
94414500 0.019333744587150786 -0.033903751090122926
97394000 0.0062063618584299275 -0.029347127572698424
100373500 0.0005554094123826753 -0.017772545374687844
103353000 0.0037952387098405377 -0.005908448905122484
106332500 0.014087489971457721 0.000333625627362456
109312000 0.02647492595947952 -0.002889495948556417
112291500 0.0330908907013292 -0.013566526387607844
115271000 0.03092805123378635 -0.026729605564813654
118250500 0.020203927730126567 -0.034955278488259724
121230000 0.006816345914760579 -0.03488015653911483
124209500 -0.003940476826910811 -0.026025845407706704
127189000 -0.0058517546436670925 -0.01285849892438583
130168500 0.0009715510250778869 -0.0016071738314349135
133148000 0.012329695635385668 0.002225727486953946
136127500 0.023197125426943122 -0.002690047492395041
139107000 0.02826092273058855 -0.011720674723591923
142086500 0.02434730228377614 -0.02176775823234025
145066000 0.015926422953015294 -0.025007920324534656
148045500 0.008410611405283182 -0.021820970982924893
151025000 0.005987088204603072 -0.01314008280097188
154004500 0.010029966423283286 -0.004878128212304944
156984000 0.01990550097936461 -0.00225945571361405
159963500 0.02943714261286415 -0.007607561518965705
162943000 0.033148365521673474 -0.018507401215848537
165922500 0.02861042999709116 -0.029307962854941774
168902000 0.01724396815249716 -0.03475658975306475
171881500 0.004442474056080648 -0.03004833901387957
174861000 -0.0022775212274091733 -0.018009039641800745
177840500 0.000509538752525916 -0.002780107290098163
180820000 0.013135973926703551 0.0076526265891855945
183799500 0.030054505993987395 0.007941976245761649
186779000 0.044479099501354376 -0.0014486443860436474
189758500 0.050759084420516146 -0.01900290750936008
192738000 0.045728265082686 -0.03428934626734483
195717500 0.03230383700027786 -0.043484718424355556
198697000 0.0186200046613406 -0.04288340296066607
201676500 0.008956486326280808 -0.033520267571000885
204656000 0.009208316839629221 -0.02253694843469525
207635500 0.01574518507776182 -0.015258553805649791
210615000 0.025140968714153403 -0.015349855234864242
213594500 0.030225455778110127 -0.02226403486455326
216574000 0.029032727559244714 -0.03124687390126288
219553500 0.020295512240955344 -0.036007652899074025
222533000 0.009598100778771709 -0.03354473600083952
225512500 0.0025443723496364223 -0.023072104818671935
228492000 0.005000192111775209 -0.009313905668160592
231471500 0.015831372540281743 0.0009030479177102514
234451000 0.03139001367377837 0.0019329822801322112
237430500 0.04521167123060692 -0.006575323797583072
240410000 0.05108248629675875 -0.021438430859193232
243389500 0.046541469184535826 -0.0367634253126619
246369000 0.03338480136350166 -0.04589526948471135
249348500 0.019615742708976446 -0.04489294519789122
252328000 0.00949908372635008 -0.035472608122028355
255307500 0.00799410364416258 -0.022259139235244484
258287000 0.01463825139084663 -0.012329795362941138
261266500 0.02599742876576961 -0.009190937648070214
264246000 0.03643673963248676 -0.014551415090930058
267225500 0.03993775564361258 -0.023474621982789
270205000 0.035866893526736984 -0.03230030713450387
273184500 0.026386095752839227 -0.03556863699384593
276164000 0.019255387842893903 -0.03242610601947019
279143500 0.014546507510699094 -0.022418652303039827
282123000 0.01752325490388873 -0.01555009426625268
285102500 0.027162124181686842 -0.011330272510384562
288082000 0.035320141764097555 -0.013415007963223638
291061500 0.039732257878041626 -0.02201188778782014
294041000 0.03818663041025535 -0.029114625449503728
297020500 0.030793737869901267 -0.03559493952782092
300000000 0.021156241283297073 -0.034181109799210234
