# Hz S RI R 50
2050000 0.8843736441308445 -0.4634561144642207 5.8190619719391117e-05 -1.3210125422890886e-05 0 0 0 0
5029500 0.3630133957267984 -0.9235047620953992 -6.495228915280623e-05 8.01912402782777e-05 0 0 0 0
8009000 -0.3465677104717661 -0.9160557538549909 4.582260276251977e-05 -5.317941469811268e-05 0 0 0 0
10988500 -0.8655177357002145 -0.4194947758423318 0.00015804273355914946 3.6510143317794956e-05 0 0 0 0
13968000 -0.8981587017877115 0.29387279583429693 -1.3060565205971483e-05 1.2059644473236851e-05 0 0 0 0
16947500 -0.4450977023692675 0.8219404127335318 -7.96534700283506e-05 2.2026103430675515e-05 0 0 0 0
19927000 0.22140336108110467 0.9050371520513387 2.7820967864346514e-05 -3.139575393594285e-05 0 0 0 0
22906500 0.7634214594443696 0.5417272856222747 -5.496397460663399e-05 -5.818189328505371e-05 0 0 0 0
25886000 0.9390323821328129 -0.07800898409650531 3.368719016944076e-05 3.6789169381684225e-05 0 0 0 0
28865500 0.6709590194639505 -0.6687123244897749 3.8933638571001844e-05 2.260633936467922e-06 0 0 0 0
31845000 0.06641318796187685 -0.9444795236298461 -1.4288452422025324e-05 6.955713423629757e-05 0 0 0 0
34824500 -0.5821941303054505 -0.7387746773858064 3.82060175101728e-05 2.6959381292919446e-05 0 0 0 0
37804000 -0.9190148388356759 -0.13652907926154928 -0.00013393284951453998 -7.282054989315073e-05 0 0 0 0
40783500 -0.7517263439388102 0.5271368452057186 -9.7384510776293e-06 -2.8721747852626257e-05 0 0 0 0
43763000 -0.19182575751078884 0.8919448655722311 -0.00010488983215812103 2.1782427521405307e-05 0 0 0 0
46742500 0.44917203433899444 0.7948550250540604 -5.350875910985729e-05 8.493772716231851e-05 0 0 0 0
49722000 0.8639208185854744 0.31475825147822284 -3.068649661919159e-05 0.00012655745926444021 0 0 0 0
52701500 0.8705014778613972 -0.317020500846424 8.919351337868799e-05 -9.978942417521115e-06 0 0 0 0
55681000 0.45945999810256083 -0.8096319055516752 6.288282442961369e-05 -7.321541033837895e-05 0 0 0 0
58660500 -0.19113240989834757 -0.9092390800741617 3.0905634679067e-05 -7.427292496815594e-05 0 0 0 0
61640000 -0.750331264898115 -0.5345902050155223 -1.4766168846528997e-05 -6.735407972762615e-06 0 0 0 0
64619500 -0.8999017638263549 0.125804330439232 -0.00010358320441564012 1.0568478848291086e-05 0 0 0 0
67599000 -0.5610566574854703 0.7016259285123579 -0.00021102123180847463 4.7076268392706187e-05 0 0 0 0
70578500 0.058822033494097675 0.8934078858510061 -8.005553938254878e-05 0.00011373944019463739 0 0 0 0
73558000 0.635084243908462 0.6359131539870255 -4.024017511641644e-05 0.00013110413995046262 0 0 0 0
76537500 0.9044481977297752 0.07407321686669245 3.778285710802445e-05 0.00012042292335233816 0 0 0 0
79517000 0.7481507702684133 -0.5292893297921639 1.5528642292246337e-06 4.9659553060949976e-05 0 0 0 0
82496500 0.22393912306540512 -0.8921367041715637 7.307872152806282e-05 -3.933590600457884e-05 0 0 0 0
85476000 -0.4235518658932335 -0.8113391566156782 -0.00014353198393564706 -7.320233988824658e-05 0 0 0 0
88455500 -0.8512610310466551 -0.30395378310133025 -0.00010452995022676534 -4.546140561722412e-05 0 0 0 0
91435000 -0.8142859517878568 0.35853807492128165 -0.00025389673852655364 4.838993685667536e-07 0 0 0 0
94414500 -0.3429127045803031 0.8103695144700063 -0.0001330133077766936 0.0001904028409827131 0 0 0 0
97394000 0.29280008756478376 0.829195963769819 -7.225948268505577e-05 0.00016965525434614742 0 0 0 0
100373500 0.7735311297965085 0.4358370590801438 -0.00010263903651091782 0.00010383586033417983 0 0 0 0
103353000 0.8826959231525351 -0.17168502994153534 4.738654899730105e-05 0.00016427416301807352 0 0 0 0
106332500 0.5684709377271637 -0.7087736812421874 -1.741377385222551e-05 -5.8541204815616846e-05 0 0 0 0
109312000 -0.03146866399099715 -0.9104382770538775 -3.996851862945829e-05 -0.0002104474991248665 0 0 0 0
112291500 -0.6236096747377107 -0.6530969783105378 -0.00025598245119567086 -0.00017317050363156673 0 0 0 0
115271000 -0.8860194912899443 -0.05753748393826617 -0.00035399414980134 -2.771736276681729e-05 0 0 0 0
118250500 -0.6748236664855556 0.5533474569903645 -0.00032905397548345887 0.00013143705026508166 0 0 0 0
121230000 -0.1167354846396703 0.8569388763417639 -0.00020289290646601806 8.303439777687797e-05 0 0 0 0
124209500 0.48741376216755544 0.7174149770942345 -0.00012303708043147013 0.00023819422818396454 0 0 0 0
127189000 0.8505327374462687 0.22170992527238467 -2.804530058817384e-05 8.071324102494977e-06 0 0 0 0
130168500 0.8018152767567207 -0.39248304976907716 -4.211978929884535e-05 9.908101359312811e-05 0 0 0 0
133148000 0.35412789835264064 -0.8291718822621192 -0.00014363860363503242 -0.00013489762511916016 0 0 0 0
136127500 -0.2831094381152706 -0.8563385564962167 -0.0003386385020664311 -0.00011094765186416052 0 0 0 0
139107000 -0.7732438361187908 -0.43717273879306573 -0.00033018896584166503 1.8392234334100816e-05 0 0 0 0
142086500 -0.8466590425192818 0.2014634222624234 -0.0004022866547768457 0.00016834776379214938 0 0 0 0
145066000 -0.4760873214937154 0.7116795529311902 -0.0003453174143126831 0.0003634535443952341 0 0 0 0
148045500 0.1249472207108174 0.8424120404188301 -0.00016276284355187573 0.00014015184776742235 0 0 0 0
151025000 0.6540426280962665 0.5569573958825822 0.00010309623961279448 0.0002473929629823453 0 0 0 0
154004500 0.8746579727387412 0.0005215506134722471 -9.339416205331227e-07 0.00011696207837048992 0 0 0 0
156984000 0.6805835325052755 -0.5726224951221242 -0.00013877531240420998 -9.95609904651209e-05 0 0 0 0
159963500 0.14590045383011668 -0.8847052624199621 -0.0001538676863279842 -9.388207727030516e-05 0 0 0 0
162943000 -0.4739446384834703 -0.7534440387963331 -0.0003586637796842421 -1.782982484458592e-05 0 0 0 0
165922500 -0.8420031896604651 -0.22812567124648386 -0.0005284280293348259 0.0001924223584754568 0 0 0 0
168902000 -0.7520736190884317 0.40037879235996493 -0.0004063847035063653 0.00027641974177480794 0 0 0 0
171881500 -0.27544969369705546 0.7934253396833096 -0.0002790118837506106 0.0003981632576760322 0 0 0 0
174861000 0.3245795274059828 0.7752204964835869 -0.00010335787019053144 0.0003682205959986079 0 0 0 0
177840500 0.7634942567213777 0.3810312715837191 -1.5511402860119455e-05 0.00017355575002935827 0 0 0 0
180820000 0.8475843096523601 -0.20234059860972536 -0.00017956437422650068 -4.2317733371750245e-05 0 0 0 0
183799500 0.5270234400753439 -0.7123963022954372 -0.00034631985458589054 -7.062878009624895e-05 0 0 0 0
186779000 -0.07035873568858421 -0.8853500737838114 -0.0005067811516343505 0.00012015413896708648 0 0 0 0
189758500 -0.641049396505265 -0.59618123594479 -0.0004452844020791769 0.0003585595997776341 0 0 0 0
192738000 -0.8519773888208947 0.013956711955095654 -0.0005179628542391325 0.0005932809729392518 0 0 0 0
195717500 -0.5854125996393981 0.5898780042141456 -0.00042901277741649613 0.0006355896748595903 0 0 0 0
198697000 -0.018557681918652983 0.8227681187824019 -0.00019317886069070554 0.0005306513890999705 0 0 0 0
201676500 0.5433622084068377 0.6298397158114675 -0.0001279079918560306 0.00037920463507766673 0 0 0 0
204656000 0.8416888829312299 0.1296548626407243 -9.513191977534169e-05 -5.40562677330145e-06 0 0 0 0
207635500 0.7492751228935874 -0.4465927001680294 -0.0004225309599376234 -8.196015087632698e-05 0 0 0 0
210615000 0.2936542320714896 -0.834718148748635 -0.0006725507058756539 -3.17646875396774e-05 0 0 0 0
213594500 -0.3241675622423119 -0.8194664653183406 -0.0005705789356116571 0.00035808659260960893 0 0 0 0
216574000 -0.7734896166120819 -0.3807315763511908 -0.0004759653874039134 0.00028435722896144 0 0 0 0
219553500 -0.8004585795904822 0.24685221527268902 -0.00041275580364972067 0.0008113886367885741 0 0 0 0
222533000 -0.40397809198845885 0.7110618242220734 -0.00028975395792492804 0.000728027106344695 0 0 0 0
225512500 0.18052660484497993 0.7947114560825894 -5.705708394808662e-05 0.0005147205286594247 0 0 0 0
228492000 0.6674194577473949 0.4899163668784965 -6.388955351486469e-05 0.0002576164826696129 0 0 0 0
231471500 0.8477010708227362 -0.05024628118786553 -0.0004983663499262786 0.00026629093989315763 0 0 0 0
234451000 0.6354732727266887 -0.592209494066731 -0.0007342749377739084 0.00010830688483518978 0 0 0 0
237430500 0.10070865899690921 -0.8706120736522682 -0.0005891151909507314 0.00015339869077238738 0 0 0 0
240410000 -0.5049510464532577 -0.7060872928463289 -0.0007878375435493209 0.0004479163490929551 0 0 0 0
243389500 -0.8274342201562849 -0.15880243976513192 -0.000565757324223599 0.0007604015641713873 0 0 0 0
246369000 -0.6779221058567242 0.4517308634499396 -0.0003918632177144208 0.0007877404035728787 0 0 0 0
249348500 -0.17045102390792022 0.7823801488259224 -0.00013872494766433075 0.0004673031594111467 0 0 0 0
252328000 0.4029747826300547 0.6993784619368764 -0.00021731473108290797 0.0003126685463536805 0 0 0 0
255307500 0.7792775584593243 0.27651644549404875 -0.00036250968991771433 0.00028664718102373415 0 0 0 0
258287000 0.7998717259846001 -0.2899901237311425 -0.0005731189553532531 -7.579029307574149e-06 0 0 0 0
261266500 0.43903305380551044 -0.7502012041433831 -0.000611010488949167 0.00023661312826785054 0 0 0 0
264246000 -0.15807486576202345 -0.857085739824074 -0.0006749028697989006 0.0005489176304600756 0 0 0 0
267225500 -0.682552776499694 -0.5120961470943023 -0.0004210165172370485 0.0008939282209874021 0 0 0 0
270205000 -0.8175074909305566 0.0989692206901798 -0.00020988253260700542 0.0005875461818823705 0 0 0 0
273184500 -0.5033302382803988 0.6217570865923467 -0.00011387137786110488 0.0007874109944968467 0 0 0 0
276164000 0.055675540091553934 0.7902526008008414 -0.00015138170777479596 0.0005363149531645745 0 0 0 0
279143500 0.5688483462765809 0.5705780298936873 -0.0001943441907398452 8.142614446416322e-05 0 0 0 0
282123000 0.8245116804050975 0.07794225556723304 -0.0008745326477329723 -0.00028237786661665734 0 0 0 0
285102500 0.7097571722355533 -0.47343534521838543 -0.0009364037383527878 0.0004425410237268692 0 0 0 0
288082000 0.2431747229008303 -0.8309207180994916 -0.001011712377715389 0.00013346502559207345 0 0 0 0
291061500 -0.3685797556963292 -0.7782342005485615 -0.0010137557325188133 0.0006415769387363269 0 0 0 0
294041000 -0.7798587367216073 -0.3042648947108058 -0.00026268079081991357 0.0009840083949318773 0 0 0 0
297020500 -0.7419480967838739 0.3109053613295511 -0.00038044666367027406 0.0006810224268725766 0 0 0 0
300000000 -0.30785777368918943 0.6985448079277835 -0.00614930196655931 -0.0033371254333237075 0 0 0 0
