# Hz S RI R 50
2050000 -0.8049874273378773 0.5057848893289076
5029500 -0.23397827270801821 0.9081636264363502
8009000 0.43204926399256854 0.8345754977272056
10988500 0.877689579738116 0.3550127933182815
13968000 0.9074061949503341 -0.29672621401813837
16947500 0.4977738668061902 -0.8181303370197197
19927000 -0.17224532439933143 -0.9379914290266017
22906500 -0.7578232437814225 -0.562054274963045
25886000 -0.9230188117355056 0.11887662583680016
28865500 -0.5781090900037849 0.7161752631605953
31845000 0.061059887420584644 0.9149115847344603
34824500 0.6531457110122606 0.6465724722743788
37804000 0.9236199197042454 0.06735270466583267
40783500 0.7519948629995178 -0.5507457121821491
43763000 0.20435059460579874 -0.9108872599639725
46742500 -0.4585565390828645 -0.8067442077695494
49722000 -0.8779541113534244 -0.26748049659941864
52701500 -0.8084715008258936 0.4096744640683468
55681000 -0.3042418110961178 0.8466767901313652
58660500 0.34342632173693144 0.8312303836152505
61640000 0.8100032681763987 0.40496847351502974
64619500 0.8869677420149882 -0.21802998771300802
67599000 0.535724450911813 -0.7468181176664199
70578500 -0.09210542092837158 -0.9141334890685066
73558000 -0.6809287039090856 -0.6042078658991681
76537500 -0.8970225794210962 0.03313132014109416
79517000 -0.617511102519994 0.6356843800337005
82496500 -0.016397732497420058 0.8802341392499623
85476000 0.5793615516978458 0.6690027934204429
88455500 0.8854562440190864 0.1306246614263909
91435000 0.768294158120943 -0.4776419881804698
94414500 0.2733032602947 -0.8674372384768478
97394000 -0.37071348674409493 -0.8267156660854991
100373500 -0.8225607662295747 -0.3510371067631441
103353000 -0.8237536737447041 0.3071694504200836
106332500 -0.37969807040582604 0.7804131303473283
109312000 0.25214519156795734 0.8298286949855415
112291500 0.7468008838026956 0.45607130940401586
115271000 0.8755863298973167 -0.14538134593702437
118250500 0.5765956583182446 -0.6882415452737443
121230000 -0.016520304561906604 -0.9007164084687946
124209500 -0.6093420516517188 -0.653495000214576
127189000 -0.8754401230965337 -0.06455389617231579
130168500 -0.6693863866957187 0.5422924675076367
133148000 -0.1207297302649669 0.8448888305012839
136127500 0.4768160361691106 0.7105094873513512
139107000 0.8382607372992253 0.2231628098955213
142086500 0.7931125510546061 -0.3844424301442162
145066000 0.34990064480805183 -0.8197036743692939
148045500 -0.28481098293669943 -0.8433229972378793
151025000 -0.7709666213919821 -0.41691759338505024
154004500 -0.8266804650632826 0.2258342520178236
156984000 -0.43548771782009094 0.7211319346804674
159963500 0.16875613883072468 0.8214602663954638
162943000 0.6787786708858397 0.5072973896204508
165922500 0.8619730686525284 -0.0597420650966848
168902000 0.6278701411651371 -0.6160650409299316
171881500 0.06858031668753421 -0.8828521090218752
174861000 -0.5390741853244967 -0.6925140761493613
177840500 -0.8474933431331619 -0.12829347983926814
180820000 -0.6843335963262723 0.4826797036441443
183799500 -0.16621034839646068 0.8090211032420423
186779000 0.41858297532903893 0.7168755300964885
189758500 0.7980542581781019 0.27967506653963725
192738000 0.8113630560051596 -0.2992708645576438
195717500 0.439821625351759 -0.7612216204499268
198697000 -0.165317440000492 -0.8636357906032615
201676500 -0.6932090603367833 -0.5154206644806465
204656000 -0.8318302848241017 0.10434846876639528
207635500 -0.5088362964703579 0.6385276055364579
210615000 0.07197449433913568 0.806146479118408
213594500 0.6030097250017894 0.55780473003806
216574000 0.8407364254448133 0.029455213516703768
219553500 0.6772936810086398 -0.5327724500581326
222533000 0.16630750558566817 -0.8561314743944912
225512500 -0.44737064029002827 -0.740403959969592
228492000 -0.812932187191465 -0.22384721973460664
231471500 -0.7157371976110072 0.3924447726020319
234451000 -0.24135198704072897 0.7640036173726742
237430500 0.33535994781542744 0.7303752875018155
240410000 0.7464172035885304 0.34578296749802956
243389500 0.8188083898816644 -0.21329453711723007
246369000 0.5067771125165853 -0.701100404748627
249348500 -0.07284991193897952 -0.8627128617581917
252328000 -0.6253865628191653 -0.5789017326230419
255307500 -0.8234702432169954 0.014879781750421617
258287000 -0.5589150509201136 0.5686505934032853
261266500 -0.01304907586490892 0.7886524928717906
264246000 0.5217601609816492 0.6041802885538796
267225500 0.8119349432556815 0.12920143467231984
270205000 0.7283764900591695 -0.42957319206451994
273184500 0.28342804130662813 -0.8118726179580195
276164000 -0.328212280132304 -0.7898884553343773
279143500 -0.7597827165987421 -0.3358275305546176
282123000 -0.7495995070822702 0.28122478068413637
285102500 -0.3304355965789232 0.7060804685384072
288082000 0.23517631937039943 0.7445280387219689
291061500 0.6801552457870377 0.41845043076210114
294041000 0.8174139992780223 -0.113706912746062
297020500 0.5715563410161936 -0.6242447509487542
300000000 0.011332339448491411 -0.8642300251087436
