# HZ S RI R 50
1000000 0.9477515816839936 -0.3163101949631286
1493797 0.8857671735456888 -0.4628150077586147
1987594 0.8007114462834158 -0.5967646551801369
2481391 0.695235236431874 -0.715952451417022
2975188 0.5722255096538219 -0.8158336948257313
3468985 0.4351572435411382 -0.8944742679392252
3962782 0.2880190096344785 -0.9501600142946887
4456579 0.13425304425924775 -0.9811371429735019
4950376 -0.02181897439968394 -0.9874549435799977
5444173 -0.17626804018601994 -0.9684605475033263
5937970 -0.3242277232789585 -0.9262725347658145
6431767 -0.4640094387580607 -0.8606612532233893
6925564 -0.5896905915786137 -0.7750176475900185
7419361 -0.700429875102797 -0.6711816730784389
7913158 -0.7928257717798057 -0.5525785238441162
8406955 -0.8652154554846314 -0.42111708089589467
8900752 -0.9157987756220595 -0.28135703977889986
9394549 -0.9446309557278149 -0.13613391671142172
9888346 -0.950352607205526 0.011270158059250133
10382143 -0.933540329230864 0.15704019852304402
10875940 -0.8947671600710435 0.29767856866325365
11369737 -0.8354666112453829 0.4302237262162727
11863534 -0.7566866893939492 0.5520456761060006
12357331 -0.661063334334134 0.659927874106819
12851128 -0.5498341523941944 0.7518183013585211
13344925 -0.42624057834861684 0.8256504758363716
13838722 -0.2927049181174738 0.8799597024350836
14332519 -0.15244017554962042 0.9132267467713763
14826316 -0.009140571449132615 0.9248917192040592
15320113 0.1345547627875376 0.913848133461883
15813910 0.27552536942759354 0.8812204624530494
16307707 0.4098920778362178 0.8272800550633208
16801504 0.5346885022596333 0.7532721870713841
17295301 0.6466533610320956 0.6603219538488945
17789098 0.7430533231943579 0.5506961992383322
18282895 0.8211172632547744 0.42718335817098446
18776692 0.8793264228144813 0.2923751517762489
19270489 0.9156854700216588 0.15002715072904363
19764286 0.9290964491345676 0.00348030703149191
20258083 0.9192693840905899 -0.1434014902823591
20751880 0.886049300116353 -0.28738381595455853
21245677 0.8306981752007131 -0.42464098109094744
21739474 0.7540919692343201 -0.5508961682789083
22233271 0.6586267575268702 -0.6633793145877875
22727068 0.5461938898214713 -0.7592254419186095
23220865 0.4201311716697765 -0.8361984422097626
23714662 0.2837515034359758 -0.8917254339233114
24208459 0.1409383467807793 -0.9248741807515763
24702256 -0.005109756405883413 -0.9350114387722323
25196053 -0.1501707895959739 -0.9224291265571573
25689850 -0.29103230932443 -0.8865764155897271
26183647 -0.42377512289771735 -0.8298356552004054
26677444 -0.5454049251679979 -0.7532475882668248
27171241 -0.6534679352700516 -0.6592792012744891
27665038 -0.7450255580353918 -0.5501602375768208
28158835 -0.8181870486084152 -0.42839435827501576
28652632 -0.8719148876286957 -0.2977354819022447
29146429 -0.9044241737638578 -0.16106035653362727
29640226 -0.9157349553431589 -0.021370389535973863
30134023 -0.9054948498879372 0.1180668096177348
30627820 -0.8746553389675548 0.2535910524762702
31121617 -0.8237750546960186 0.3823209057629611
31615414 -0.7541016002698542 0.5019518627322853
32109211 -0.6674721072371567 0.6093188098877825
32603008 -0.5651586928454356 0.7019317267296117
33096805 -0.4504517231790056 0.778716956424646
33590602 -0.3252388029022137 0.8364983498276808
34084399 -0.19273249627903377 0.8754051603046487
34578196 -0.05580789111388131 0.8935688491382432
35071993 0.08277966840311564 0.8907602029641365
35565790 0.21968747418500212 0.8664806762951329
36059587 0.35152113347293473 0.8215445697804908
36553384 0.4753918060294157 0.7563611437561104
37047181 0.5880470414282165 0.6731525724937021
37540978 0.6868624605083932 0.5733368809124937
38034775 0.7692134543324494 0.4584548540736224
38528572 0.8326937980290626 0.3322047713586224
39022369 0.8756205592178291 0.19696700242947962
39516166 0.8970109794236847 0.056382239824015634
40009963 0.8956122163701966 -0.08647146386326515
40503760 0.8722529879553595 -0.22762849855497602
40997557 0.8263104283452292 -0.3635838811239688
41491354 0.7594055358609582 -0.4908273288558643
41985151 0.6730071712633224 -0.605327152326583
42478948 0.5694651784355553 -0.7051224966590625
42972745 0.45186463716426306 -0.786966169964457
43466542 0.3223415437426014 -0.8485652404211707
43960339 0.1847926685300053 -0.889067605823447
44454136 0.043247805195370886 -0.9066772670744279
44947933 -0.09930694147260138 -0.9018811455114683
45441730 -0.23833314622846502 -0.8747431334316392
45935527 -0.3711296145355919 -0.8260212381010762
46429324 -0.4942507976324541 -0.7572772304856312
46923121 -0.6041635268734546 -0.6707746792776238
47416918 -0.6990144694377852 -0.5684624714164447
47910715 -0.776088975633283 -0.4531986396117197
48404512 -0.834692830254699 -0.32800022965751624
48898309 -0.8727278158529799 -0.19560904135892673
49392106 -0.8898485685104343 -0.059332180256854286
49885903 -0.8861069649324662 0.0771609359777059
50379700 -0.8617442584723493 0.21086586433207874
50873497 -0.8168720521529446 0.3387011174865853
51367294 -0.7538158922810326 0.45805940376151605
51861091 -0.6733815030906105 0.566316669179637
52354888 -0.5778167123377309 0.6607348835747084
52848685 -0.46888421547419645 0.7397292645012569
53342482 -0.3492910379972447 0.8013743560319098
53836279 -0.2217227606292227 0.8440162665233842
54330076 -0.08942882614431681 0.8667742769317579
54823873 0.045609101077509526 0.8695079583679918
55317670 0.17955762586255436 0.8511973087995703
55811467 0.3092420100957614 0.8129751450551976
56305264 0.4323492294824492 0.7550091916078497
56799061 0.5450396943145779 0.6787967014391607
57292858 0.644839332706851 0.5857057578064444
57786655 0.7294345554599394 0.4780557828156496
58280452 0.7965217015092219 0.35818370786289866
58774249 0.8441531075717251 0.22898648152495446
59268046 0.8710385763743635 0.09340699377009633
59761843 0.8765018858993245 -0.04491382017177889
60255640 0.8602165093092521 -0.18286451120596703
60749437 0.8221059561050713 -0.31677374607006054
61243234 0.7631874961150718 -0.4431579766968964
61737031 0.6852243440099678 -0.5589151630345345
62230828 0.5896567952135628 -0.6605925069210734
62724625 0.47895425512103956 -0.7456337090313852
63218422 0.3566174666316963 -0.8122849917997638
63712219 0.2251726707384453 -0.8585932947148389
64206016 0.088443800782541 -0.8835238178585108
64699813 -0.05015252423140074 -0.8863178901082102
65193610 -0.186935527177961 -0.8674920692563398
65687407 -0.318696402987995 -0.8272016326978103
66181204 -0.44162513139000753 -0.7672447837102777
66675001 -0.55377173157599 -0.6890404458668
67168798 -0.6515456682788314 -0.594907092516384
67662595 -0.7331653798566161 -0.4870921996537604
68156392 -0.7972987161071864 -0.36868396475867116
68650189 -0.841979295867327 -0.2418171244435685
69143986 -0.8665718659666335 -0.11054543266094409
69637783 -0.8706101375053967 0.022366022958380714
70131580 -0.8544819164132965 0.15390188322552542
70625377 -0.8188615057289805 0.28110713401281556
71119174 -0.7641876334262144 0.4009449526719589
71612971 -0.6922338828223439 0.5111077675699597
72106768 -0.6047812794300155 0.6090275393725046
72600565 -0.5032222362215912 0.6924708080429268
73094362 -0.3905169221806363 0.7594182141605608
73588159 -0.2686265254717365 0.8090140788132921
74081956 -0.14101732088356791 0.8395316659945302
74575753 -0.009796052655896602 0.8502657472828259
75069550 0.12146099476891938 0.8409919015394927
75563347 0.2506022324331151 0.8118551031670597
76057144 0.3735689283568628 0.7631331845028115
76550941 0.4882588322428467 0.6959748464260797
77044738 0.5915580211293126 0.6116041918424128
77538535 0.6807464918078 0.512056648208232
78032332 0.753558689560637 0.399249080018135
78526129 0.8082708461463769 0.2760644165392248
79019926 0.8433660710561451 0.14530030383095635
79513723 0.8572474916860098 0.010162769703749894
80007520 0.850067433619779 -0.12617357662899667
80501317 0.8209795817289559 -0.26001983718582655
80995114 0.7709185409062482 -0.38787271620962227
81488911 0.7011142474895763 -0.5063650596600732
81982708 0.6134098681861736 -0.6124193955727236
82476505 0.50972198518189 -0.70297891086691
82970302 0.3930244306680394 -0.7760257689709783
83464099 0.2661715974471329 -0.8288267337994154
83957896 0.13283869549736155 -0.8612959245152618
84451693 -0.00313497986413761 -0.8717508246973439
84945490 -0.1390648548342569 -0.8604737195305602
85439287 -0.27085829175082093 -0.8279311596002862
85933084 -0.3951429017187621 -0.7751007519211843
86426881 -0.509286805033596 -0.7034336140156083
86920678 -0.6105758018852707 -0.6155200345193337
87414475 -0.6960409079482346 -0.5135123770979647
87908272 -0.7643721827295294 -0.39926109505972573
88402069 -0.8141121377538213 -0.27700167518526964
88895866 -0.8442838783206252 -0.1488502361823713
89389663 -0.8542208920321761 -0.018127014326715825
89883460 -0.8444215486762279 0.11182600445821043
90377257 -0.8150293001236987 0.23814617570097005
90871054 -0.7670493605916407 0.35812974918356894
91364851 -0.7016484069694677 0.46896634392195996
91858648 -0.6203013366388087 0.5685464637386584
92352445 -0.5252646756070491 0.6547245370973405
92846242 -0.4186385017703395 0.7252872016263326
93340039 -0.30228783843306917 0.77901982736651
93833836 -0.17938047001665586 0.8147297313044076
94327633 -0.052166731369093 0.8315784814799676
94821430 0.07633799333335287 0.8288852141268522
95315227 0.20314392584714505 0.8065340637322144
95809024 0.3253560370394133 0.765500326742904
96302821 0.44062036225823026 0.7061477132560543
96796618 0.5456166704922946 0.629283050752172
97290415 0.6377870678791814 0.5368160834611526
97784212 0.7151243441600117 0.4312120140859526
98278009 0.775358845824211 0.3141006829480197
98771806 0.8168348190367779 0.188599184010882
99265603 0.8381569231863002 0.05762214137690812
99759400 0.8390103621477347 -0.07585958409732638
100253197 0.8186712058283085 -0.20822938138120284
100746994 0.7769559737221589 -0.3359861850899066
101240791 0.71626503242079 -0.4558648828993805
101734588 0.6361450823125303 -0.5647030335909329
102228385 0.5403037819575485 -0.6597170883725649
102722182 0.43010264258050246 -0.7379512936755783
103215979 0.3089530368823451 -0.7978257235506493
103709776 0.18030658828061716 -0.8371257572739095
104203573 0.04678520447332652 -0.8556259458514689
104697370 -0.08764546710922531 -0.8522483901237481
105191167 -0.2194321471490458 -0.8274983360223891
105684964 -0.3451766161736515 -0.7828047837587881
106178761 -0.461753594729754 -0.7189454420075235
106672558 -0.5658601839405785 -0.6376454732289417
107166355 -0.6559225590493647 -0.5417232072647981
107660152 -0.7296123610926212 -0.4329668658866073
108153949 -0.7849080142670524 -0.3149628020629971
108647746 -0.8215089601398443 -0.19063494731929456
109141543 -0.8380873348115637 -0.06256837379340076
109635340 -0.8350832341621188 0.06570253492350552
110129137 -0.8123656778212658 0.1913353988905694
110622934 -0.7713429210930345 0.3115241170558585
111116731 -0.7127003288702617 0.42373854121312127
111610528 -0.6384510438897681 0.525382157551422
112104325 -0.5492901207400777 0.6144962850085777
112598122 -0.44810648544830733 0.6890185869733265
113091919 -0.33769409098604986 0.7475265631373915
113585716 -0.21908247562123653 0.7886451003243233
114079513 -0.09576285352792746 0.8116611560804222
114573310 0.029815573394963102 0.8159541380004002
115067107 0.15455688817009985 0.801031202283057
115560904 0.27621141129939875 0.7674631661959023
116054701 0.3914891399686466 0.7161572278042093
116548498 0.4980925269989894 0.6473296243273973
117042295 0.5934056848305174 0.5624222053514271
117536092 0.6746730993940084 0.4640495531689783
118029889 0.740774789273319 0.3537495090461281
118523686 0.7886864748225939 0.2340238849750558
119017483 0.8177497316569298 0.10756452949896572
119511280 0.8268635350526884 -0.02227443495225901
120005077 0.8156922118173852 -0.15280067666552405
120498874 0.7835446452067263 -0.2799397561275729
120992671 0.7314173752426153 -0.40109359695358326
121486468 0.6610799938289358 -0.5132570862987176
121980265 0.573151067986305 -0.6119452119096553
122474062 0.4705546552717945 -0.6963205577622988
122967859 0.35540113621738 -0.762923366870807
123461656 0.23154605957881058 -0.8102957053761616
123955453 0.10138958104705649 -0.8374442004843448
124449250 -0.03081651622828484 -0.8431198976115868
124943047 -0.16231425481377706 -0.8276758245824505
125436844 -0.2895595859127402 -0.7913701738544379
125930641 -0.40787981159366543 -0.73543704268285
126424438 -0.516677614910073 -0.662047047298997
126918235 -0.6117879408008827 -0.5725045332808911
127412032 -0.6907568780961965 -0.4696428539778225
127905829 -0.7527108850988298 -0.35639247123708845
128399626 -0.7960525465857584 -0.2353311093826308
128893423 -0.8195623410360298 -0.10987916271244032
129387220 -0.8238943749713795 0.017377984817331403
129881017 -0.8085711632645765 0.14293215610564491
130374814 -0.7742783346420681 0.26378351527916305
130868611 -0.7224529229548211 0.37757639740130594
131362408 -0.6538510167922104 0.4818745707005181
131856205 -0.5708951678418364 0.5741414311744351
132350002 -0.47504642160921406 0.652516684792327
132843799 -0.36883631969802716 0.7155811114209452
133337596 -0.25460523698556004 0.7621939681601787
133831393 -0.1348461865654499 0.7907090922454795
134325190 -0.011774056542708812 0.8007628598765373
134818987 0.11132630822838395 0.7928168464266208
135312784 0.23237769061052232 0.7664451143613475
135806581 0.34757939448716135 0.7217577694569823
136300378 0.4555526131468842 0.6602783590184564
136794175 0.5528496691890072 0.5826722115815085
137287972 0.6374283101544672 0.4912387363335404
137781769 0.7077207577779168 0.38710705019956926
138275566 0.7613940127225056 0.27346645471147557
138769363 0.7972030278525355 0.1518570081387333
139263160 0.8136791460289345 0.02637539699652413
139756957 0.8105692099675514 -0.1014549828337691
140250754 0.7875048194958562 -0.22694236311756769
140744551 0.744958291375981 -0.3483791115466143
141238348 0.6841880394614355 -0.461665597004173
141732145 0.605466871381437 -0.5640106610783614
142225942 0.5116944794945407 -0.6529382758448389
142719739 0.4047754521385062 -0.7262734290949335
143213536 0.2874798570813572 -0.7814272883712654
143707333 0.16303025847260846 -0.8172544267784299
144201130 0.0343217364989479 -0.8332492539979243
144694927 -0.09509463535481985 -0.8285726026465812
145188724 -0.2216058161933211 -0.803260711187058
145682521 -0.34235285498290313 -0.758638362643475
146176318 -0.45405644495610425 -0.6956980183179137
146670115 -0.5541015140459612 -0.6160526725103226
147163912 -0.6399341653617223 -0.5219948224969558
147657709 -0.7103930748349452 -0.41654558648483214
148151506 -0.7629132764731146 -0.30159127801027213
148645303 -0.7966329645088879 -0.18088575658808562
149139100 -0.8117365046233102 -0.056517414152522975
149632897 -0.8071940360410073 0.06767847095167873
150126694 -0.783962117932144 0.18943337719958503
150620491 -0.7429419171957394 0.3054356085769884
151114288 -0.6844766593342851 0.41355691227673025
151608085 -0.6113262942896128 0.5113408980098814
152101882 -0.5240557301696305 0.5965371377664653
152595679 -0.4250452692197728 0.667529899504712
153089476 -0.3165746773300819 0.7228330114498829
153583273 -0.2013619595764668 0.7612681504843563
154077070 -0.08154075786342271 0.781990663862351
154570867 0.04030169182223562 0.784243407687152
155064664 0.1608429955485846 0.7683408559485698
155558461 0.278578829328181 0.7342771256467713
156052258 0.3893628384004322 0.6824827498383036
156546055 0.49169331616380213 0.6145317071485229
157039852 0.5829342637212636 0.5315278164709316
157533649 0.66023269618706 0.43497762245539673
158027446 0.7222043688832553 0.3272634483165203
158521243 0.7669551459104691 0.21086814840225682
159015040 0.7934810450091837 0.08822105503327925
159508837 0.8005278926442717 -0.03751511235315061
160002634 0.7878395833148272 -0.16315751191553596
160496431 0.7556412873326475 -0.2858943610177475
160990228 0.7041085523628634 -0.4020314612080458
161484025 0.634920340375426 -0.5093451803017076
161977822 0.5489945079737093 -0.6043509578564537
162471619 0.4491488408194052 -0.6843805552139812
162965416 0.3379664606366054 -0.7479260260057561
163459213 0.2177800390216267 -0.7923036960110442
163953010 0.09206153778063418 -0.8176289024673163
164446807 -0.03562632405256834 -0.822257417031765
164940604 -0.16196064117868225 -0.8069187790528269
165434401 -0.2843151636264208 -0.7713978088907414
165928198 -0.39906786487898344 -0.717305980973558
166421995 -0.5033976501211707 -0.6457223646265657
166915792 -0.5950977365357173 -0.5592817940351767
167409589 -0.6711004458198201 -0.45974075267137876
167903386 -0.730930647578768 -0.35052991695849123
168397183 -0.7727198631898582 -0.23359803169203158
168890980 -0.7956853686909199 -0.11246191101350975
169384777 -0.7997525873030538 0.010517738985652616
169878574 -0.7850225580053819 0.13194790609570986
170372371 -0.7523512287339019 0.24879685308193525
170866168 -0.7022245972736801 0.35929223923299597
171359965 -0.6361677226922053 0.46039413155511266
171853762 -0.5559235917436423 0.5501411049465017
172347559 -0.4630829512190175 0.6266710403840311
172841356 -0.3601751317095122 0.6879450820085216
173335153 -0.24923649637171047 0.7330736692349056
173828950 -0.1325887005591806 0.7610760643631891
174322747 -0.012741192462232527 0.7712022320324393
174816544 0.10673700255742591 0.7632934764223578
175310341 0.22419527327735905 0.7368216282701074
175804138 0.3370556088305396 0.6933686499943033
176297935 0.44193338064379895 0.632807252194504
176791732 0.5370910893579288 0.5565858398244548
177285529 0.6195574689020482 0.4666894395338487
177779326 0.6873015311630196 0.3642553715064083
178273123 0.7388467215395559 0.2522644258916672
178766920 0.7725462627982059 0.13291073289188624
179260717 0.7873091053985187 0.00926597783133451
179754514 0.7824704480764088 -0.11564162110687301
180248311 0.7581096423806691 -0.23875943631734164
180742108 0.714113811218006 -0.3567859051286004
181235905 0.6515372324093576 -0.46704680817867295
181729702 0.5722281393409834 -0.5656579285884422
182223499 0.4780886696748227 -0.6506782028653959
182717296 0.3718812987156089 -0.7193593789160826
183211093 0.25573047911225255 -0.7701144429608406
183704890 0.1329316172273727 -0.8017134293651332
184198687 0.006489533209358519 -0.8133720179794057
184692484 -0.11916270079621613 -0.8049193064355082
185186281 -0.24168943240643803 -0.7763133962022565
185680078 -0.35740782102277363 -0.7291889565756503
186173875 -0.4640779617768371 -0.6642204774885236
186667672 -0.5586393010870363 -0.5839926948806471
187161469 -0.6391063084445793 -0.4901894929585292
187655266 -0.7034880675758922 -0.385843587966233
188149063 -0.7507853375680433 -0.27347807092056964
188642860 -0.7802223001718213 -0.15585044757674393
189136657 -0.7906580719860001 -0.03567368444855897
189630454 -0.7833728630356606 0.08385824404291149
190124251 -0.7577974918150086 0.20029664184591794
190618048 -0.7154740547834583 0.31092448562931774
191111845 -0.6566687268652132 0.4137938954614028
191605642 -0.5841294891221607 0.50614051296693
192099439 -0.498214800452818 0.586098026114093
192593236 -0.40208203005044724 0.6526909033041943
193087033 -0.2970668792126087 0.7041254568381318
193580830 -0.18546360927669323 0.7391404359443929
194074627 -0.06987684618732888 0.7576913110549032
194568424 0.04756227358418322 0.7578083485468469
195062221 0.16384571934007186 0.7415025871999306
195556018 0.2766300093883532 0.7068987301791956
196049815 0.38302501626904883 0.6560017897797882
196543612 0.48161058566608134 0.5891903065679475
197037409 0.5693193374363325 0.5075170286269799
197531206 0.6436325290382732 0.41324787120834333
198025003 0.7028788837479443 0.3081824736430696
198518800 0.7458498438630934 0.19412819760010822
199012597 0.7703223846217974 0.07437343708089271
199506394 0.7760023210164286 -0.048454341476801305
200000191 0.7621996528418711 -0.17119776642529994
