# Hz S RI R 50
2050000 -0.012974545021310343 -0.020293033011646512 -0.284169912 0.043025251 0 0 0 0
5029500 -0.015241394944521945 -0.0559671493298346 -0.267246007 0.10147196 0 0 0 0
8009000 -0.02752719368185935 -0.09410996038590352 -0.238273516 0.154813721 0 0 0 0
10988500 -0.049100719260993395 -0.13358604246200673 -0.198050349 0.20057474 0 0 0 0
13968000 -0.0831441230651014 -0.17312132797750815 -0.14805594 0.23625499 0 0 0 0
16947500 -0.13204850111435754 -0.2091399326978245 -0.090573549 0.259176462 0 0 0 0
19927000 -0.19716013943065147 -0.2370064587653599 -0.028685815 0.267182201 0 0 0 0
22906500 -0.27871433680204283 -0.251650142746397 0.033501304 0.258650153 0 0 0 0
25886000 -0.37586956289057066 -0.2445823118486121 0.091248936 0.232987031 0 0 0 0
28865500 -0.4839043755916514 -0.2079949591965974 0.138468965 0.1913504 0 0 0 0
31845000 -0.5941925535645478 -0.1343454176889578 0.169368371 0.137123227 0 0 0 0
34824500 -0.6930298770432782 -0.016403424827944962 0.178555369 0.076737038 0 0 0 0
37804000 -0.7600942522443008 0.14585364210331864 0.163602709 0.019464176 0 0 0 0
40783500 -0.7744875750217329 0.34225428146739173 0.126490011 -0.022835263 0 0 0 0
43763000 -0.716516846405097 0.5514245039651127 0.076120778 -0.03922623 0 0 0 0
46742500 -0.579754202899734 0.7374232407444715 0.028320988 -0.02473711 0 0 0 0
49722000 -0.37975341969840376 0.8629907343224784 0.000709813 0.015185633 0 0 0 0
52701500 -0.15209448662075564 0.9045173672777195 0.004858089 0.06427221 0 0 0 0
55681000 0.059645655293870635 0.8638089279843252 0.039567362 0.102675199 0 0 0 0
58660500 0.22540075285136418 0.7626399227584274 0.092690959 0.116638243 0 0 0 0
61640000 0.3332100476784847 0.6335631182861381 0.148548409 0.102483935 0 0 0 0
64619500 0.3893535844275408 0.5027030205051662 0.194371163 0.064940497 0 0 0 0
67599000 0.40622457999736866 0.38439918372618564 0.22308354 0.01237177 0 0 0 0
70578500 0.3963997828009158 0.28599797022881573 0.232482418 -0.046764697 0 0 0 0
73558000 0.37229190919607147 0.20747062635331365 0.223432719 -0.105620652 0 0 0 0
76537500 0.34052830854883653 0.14595421810627324 0.198471009 -0.159099593 0 0 0 0
79517000 0.30465811818961885 0.09842086872734511 0.161196127 -0.203788459 0 0 0 0
82496500 0.2670441164596837 0.062089171322241246 0.11481285 -0.237776234 0 0 0 0
85476000 0.22924809568815283 0.035118618353024766 0.062302108 -0.259967207 0 0 0 0
88455500 0.19054234910752413 0.016190306210148383 0.00641976 -0.269655942 0 0 0 0
91435000 0.15052013925529314 0.004229776603509485 -0.050170153 -0.266930788 0 0 0 0
94414500 0.11027609411763165 0.00035936076939506857 -0.104717664 -0.251942694 0 0 0 0
97394000 0.06875740443397971 0.004427611387100501 -0.154971331 -0.225412905 0 0 0 0
100373500 0.02848105762404271 0.018559174144530403 -0.198550522 -0.188285604 0 0 0 0
103353000 -0.009502025105084088 0.0437965603224046 -0.233001768 -0.142308682 0 0 0 0
106332500 -0.04291536441587062 0.07970394869647485 -0.256365597 -0.089405082 0 0 0 0
109312000 -0.06884653191481764 0.12695909958728882 -0.267043232 -0.032278221 0 0 0 0
112291500 -0.08313999245840453 0.18514701122741395 -0.263944894 0.02588468 0 0 0 0
115271000 -0.0827240446146136 0.2520919154011252 -0.246798783 0.081530302 0 0 0 0
118250500 -0.06398689268849633 0.32361260138163106 -0.216443285 0.130920261 0 0 0 0
121230000 -0.024980940876843504 0.39631544898900706 -0.174508392 0.170685037 0 0 0 0
124209500 0.0366616842043292 0.4649190120401966 -0.123909093 0.197406128 0 0 0 0
127189000 0.12206880384921821 0.5240249427453968 -0.0686993 0.208018779 0 0 0 0
130168500 0.23012013097320885 0.5655929428303369 -0.014009239 0.201118856 0 0 0 0
133148000 0.36039858761932075 0.5816499479966416 0.033737268 0.176890522 0 0 0 0
136127500 0.5062783651901893 0.5627325506896474 0.067703217 0.137756451 0 0 0 0
139107000 0.6585603072640995 0.4965051949027268 0.080882623 0.089872449 0 0 0 0
142086500 0.7982924064869994 0.374704070556357 0.069004729 0.044038213 0 0 0 0
145066000 0.8985511824691195 0.200183439678903 0.034333921 0.014486095 0 0 0 0
148045500 0.933468219470179 -0.008959739704995669 -0.010784512 0.013607415 0 0 0 0
151025000 0.888780115355788 -0.21587625267150692 -0.046908885 0.04324143 0 0 0 0
154004500 0.7788838061829458 -0.38432407545907443 -0.057544637 0.091889142 0 0 0 0
156984000 0.6343516872233442 -0.493084174122781 -0.038204796 0.1410034 0 0 0 0
159963500 0.4843673377832986 -0.5442869738600408 0.00433925 0.17598401 0 0 0 0
162943000 0.3482183021716318 -0.5527773662900379 0.058854926 0.190212458 0 0 0 0
165922500 0.23286154440851295 -0.5318694750762205 0.115372553 0.183453917 0 0 0 0
168902000 0.13832436537098688 -0.4929971183256157 0.166608735 0.158669948 0 0 0 0
171881500 0.06429486025087422 -0.44230246665682077 0.208323493 0.120036795 0 0 0 0
174861000 0.00755948073540776 -0.38572239184660834 0.237910598 0.07170967 0 0 0 0
177840500 -0.03235422472067482 -0.3240894351768108 0.254119396 0.017587546 0 0 0 0
180820000 -0.05654414585358451 -0.26122455114405385 0.25684002 -0.038854509 0 0 0 0
183799500 -0.06532693403059234 -0.1987584886631454 0.246137335 -0.094349436 0 0 0 0
186779000 -0.06013105187718992 -0.1396160460641136 0.222929775 -0.14600946 0 0 0 0
189758500 -0.04054454205290813 -0.08650222257486029 0.188543498 -0.191019132 0 0 0 0
192738000 -0.009526631501513326 -0.04163976671872981 0.1448206 -0.226973608 0 0 0 0
195717500 0.03150489913884994 -0.007686686635679721 0.094529606 -0.252179205 0 0 0 0
198697000 0.0793199548356243 0.01377558743772492 0.040036566 -0.265319585 0 0 0 0
201676500 0.1311823390225411 0.022211470138189245 -0.015740644 -0.266248703 0 0 0 0
204656000 0.18427490424276935 0.017374409972224225 -0.069776736 -0.254832953 0 0 0 0
207635500 0.23611219486061524 -0.0007470027837589447 -0.119651675 -0.231983542 0 0 0 0
210615000 0.2844984474393166 -0.03123878339939438 -0.162987321 -0.199027255 0 0 0 0
213594500 0.32815086376460784 -0.07299331341307007 -0.197424635 -0.157279089 0 0 0 0
216574000 0.36570449821340295 -0.12463911065598808 -0.221437662 -0.108946427 0 0 0 0
219553500 0.39554098858060677 -0.18712895611776473 -0.233254805 -0.056171178 0 0 0 0
222533000 0.41706614080172805 -0.2607101144939699 -0.231331542 -0.001909646 0 0 0 0
225512500 0.42736993783316785 -0.34784748233217144 -0.214508548 0.0500504 0 0 0 0
228492000 0.42226747741010057 -0.448681459956243 -0.182655572 0.094518616 0 0 0 0
231471500 0.3909506726830328 -0.5640475696962076 -0.13784866 0.125593006 0 0 0 0
234451000 0.32066091752487524 -0.6902617853721401 -0.085028328 0.136623054 0 0 0 0
237430500 0.20011511168579582 -0.8092230522699935 -0.034418884 0.123305439 0 0 0 0
240410000 0.022422458931581256 -0.8949131611066536 -7.6164e-05 0.087216258 0 0 0 0
243389500 -0.19324395988545004 -0.9126936092532612 0.005747454 0.040958993 0 0 0 0
246369000 -0.4126214734974192 -0.8424947660165024 -0.01861695 0.003612749 0 0 0 0
249348500 -0.5859509030931127 -0.696208988606292 -0.061517756 -0.008575684 0 0 0 0
252328000 -0.6880616551405495 -0.5086120093740314 -0.104726716 0.00869866 0 0 0 0
255307500 -0.7180712808524996 -0.3169532399906304 -0.133278042 0.048980481 0 0 0 0
258287000 -0.6900230025788305 -0.145861163310321 -0.140010088 0.100584477 0 0 0 0
261266500 -0.62232209330746 -0.007420643186453295 -0.124422311 0.152636334 0 0 0 0
264246000 -0.5314549143449011 0.09232091864137645 -0.089912973 0.197203338 0 0 0 0
267225500 -0.43137644726796726 0.1547540779999602 -0.041508011 0.228387057 0 0 0 0
270205000 -0.33225871134296064 0.18398944447925913 0.014874158 0.243894398 0 0 0 0
273184500 -0.24232546760535226 0.18610090121865544 0.073553219 0.242587432 0 0 0 0
276164000 -0.16731926371512226 0.16694202405810257 0.129913508 0.225696861 0 0 0 0
279143500 -0.10935956870269549 0.1347672079485278 0.17996855 0.195170626 0 0 0 0
282123000 -0.06902565187671701 0.09399854328739236 0.220640808 0.153767317 0 0 0 0
285102500 -0.04444986191955974 0.050650521351113045 0.250442266 0.10437712 0 0 0 0
288082000 -0.033780083327163285 0.009776408498932253 0.267871886 0.050174321 0 0 0 0
291061500 -0.034768366254796665 -0.027075506591895088 0.272953957 -0.00607318 0 0 0 0
294041000 -0.042993993122525505 -0.05854704463864673 0.266148686 -0.061564061 0 0 0 0
297020500 -0.05557948168430718 -0.08490263373572843 0.247812971 -0.11404328 0 0 0 0
300000000 -0.06985565326984239 -0.10600752952948968 0.226950585 -0.171684429 0 0 0 0
