# Hz S RI R 50
2050000 0.0014477927265892428 -0.02556708819514103
5029500 -0.005996892892886443 -0.06637348173215372
8009000 -0.02293898877937388 -0.10751843382676327
10988500 -0.05089675562950764 -0.14705889313422502
13968000 -0.09031086690650833 -0.18433337684074916
16947500 -0.1427632884569439 -0.215835832765231
19927000 -0.2089145863107628 -0.23804476659654472
22906500 -0.2889910595834212 -0.24749993952158925
25886000 -0.38213547157331096 -0.23692446009612414
28865500 -0.4851196345302645 -0.19962407560559634
31845000 -0.5911581045433967 -0.12752667027224418
34824500 -0.6874849316528094 -0.013755476728201214
37804000 -0.7553828529318338 0.1441142141946567
40783500 -0.7727065360906515 0.33892213275635497
43763000 -0.717405188772356 0.5481133685005872
46742500 -0.5817974144065838 0.7359445997162288
49722000 -0.38185492014439365 0.8621443857381952
52701500 -0.15479140531582003 0.9048358099239224
55681000 0.056880277420556014 0.8662890076826197
58660500 0.22399249345435748 0.767709877011842
61640000 0.3362491236343325 0.640804387065602
64619500 0.3976910365985983 0.508277320697945
67599000 0.4188293374266154 0.3858262242635711
70578500 0.41055246711867066 0.28065175913843793
73558000 0.38465113648234717 0.19527584802709538
76537500 0.34743152167627 0.12814040626075443
79517000 0.30453057191972904 0.07790053567489863
82496500 0.258850488032462 0.042140228108263865
85476000 0.21392950276655037 0.01894842677445049
88455500 0.17031796962737863 0.006164540027601809
91435000 0.12831790375289945 0.0024036478239284577
94414500 0.08906857219267236 0.006539066052591898
97394000 0.05214109045351622 0.018359593100185617
100373500 0.018248118092333176 0.03727067850764953
103353000 -0.010782245878085557 0.06433852988222277
106332500 -0.03585382552927889 0.0985144302389929
109312000 -0.05464623883392747 0.14120892246061964
112291500 -0.06456951555239607 0.19194494321675953
115271000 -0.06341484148240671 0.24980227763651391
118250500 -0.04813185026575855 0.3135859716769089
121230000 -0.015607794778912065 0.3812605756907212
124209500 0.03880005898019287 0.449028762059601
127189000 0.11787233486216993 0.5106614481943028
130168500 0.222904066708434 0.5581244374638739
133148000 0.3538136986555163 0.5797197450137047
136127500 0.5045023024129048 0.5634154975058059
139107000 0.6613789732452956 0.49627716851533965
142086500 0.8032945532071538 0.369967392210282
145066000 0.9017999046059821 0.1914707257089798
148045500 0.9334493998105302 -0.018787520010509103
151025000 0.8879296836648558 -0.22543630484157978
154004500 0.7773755257363578 -0.3962096425513094
156984000 0.6280482751557221 -0.5078044818186321
159963500 0.4706687487297321 -0.5592270494456248
162943000 0.3264340162393609 -0.5612522346107114
165922500 0.2075744396346625 -0.529884326676778
168902000 0.1168966154806015 -0.4784759154983579
171881500 0.051437881508867946 -0.41802580764960917
174861000 0.008138651303969343 -0.3563227148655231
177840500 -0.017428720799240058 -0.29650690645403743
180820000 -0.028961277653005105 -0.24191807587630842
183799500 -0.029963876632807595 -0.19280462228517112
186779000 -0.02230329309555192 -0.14896137862944034
189758500 -0.007440914464395633 -0.11096474554460009
192738000 0.01359075041065659 -0.07851915648827516
195717500 0.04021149789494599 -0.0518027766595655
198697000 0.07171807882130642 -0.031133952498697527
201676500 0.1087564608143958 -0.017228011458791416
204656000 0.1503483943086412 -0.010762930511088049
207635500 0.1961416460769624 -0.014439200997470099
210615000 0.2449226313858099 -0.028734070291607138
213594500 0.2954514246426548 -0.05638354834100149
216574000 0.34530540443419233 -0.09846864124441394
219553500 0.39056862557464195 -0.158410969904844
222533000 0.42618399241108224 -0.23675771153721142
225512500 0.4470851496419638 -0.33437773157463946
228492000 0.4443310832066198 -0.4498381854676628
231471500 0.40742363885986427 -0.5782631908540328
234451000 0.3253608478619979 -0.711096012433914
237430500 0.1931474166376937 -0.8271615491518787
240410000 0.00935149092811304 -0.9038778148994493
243389500 -0.20510988886885861 -0.9140917157184482
246369000 -0.4204902877988734 -0.8385667524303304
249348500 -0.589948553046658 -0.6900991611626381
252328000 -0.6867106407004564 -0.49873409076684583
255307500 -0.7070588699839966 -0.3067721926717724
258287000 -0.6680101392863962 -0.1428288080083672
261266500 -0.5946221489465848 -0.01890581279458839
264246000 -0.5067746996403312 0.06404623917123473
267225500 -0.41871792794599905 0.1139062780645736
270205000 -0.33772005245056064 0.1376595063080482
273184500 -0.2664517921683604 0.14352529229008534
276164000 -0.2061755493248115 0.13576888871761394
279143500 -0.15637536445135963 0.12066027405198529
282123000 -0.11513532581736734 0.09882406755314478
285102500 -0.08232119921052804 0.07241927648925589
288082000 -0.05699878214410176 0.043290551233742
291061500 -0.04008228599324427 0.010795898681931438
294041000 -0.029197867283900576 -0.024172037676210994
297020500 -0.025717042620174133 -0.061692750967418324
300000000 -0.020694142524101518 -0.0739718529672959
