# Hz S RI R 50
2050000 -0.9519101966083651 0.1902954290269764 -0.014864856 -0.039911545 0 0 0 0
5029500 -0.8224624798699485 0.40510015173890634 -0.061276268 -0.073554866 0 0 0 0
8009000 -0.6484436029917395 0.5400420719633899 -0.118606314 -0.07228408 0 0 0 0
10988500 -0.46999617500185026 0.6028195650975098 -0.167453318 -0.041163191 0 0 0 0
13968000 -0.3087428680668997 0.6117722450717012 -0.197775676 0.008534905 0 0 0 0
16947500 -0.17327140951016676 0.5857106041412246 -0.207065001 0.066115982 0 0 0 0
19927000 -0.06324658138206532 0.5368466463647992 -0.196769773 0.123555034 0 0 0 0
22906500 0.021961341425822227 0.47395994103992434 -0.169814467 0.175286427 0 0 0 0
25886000 0.0844839685115571 0.4030838527047293 -0.129525154 0.217677116 0 0 0 0
28865500 0.12554071434942052 0.32846364470605843 -0.079565122 0.24816358 0 0 0 0
31845000 0.14726953808172857 0.2538276008677704 -0.023421443 0.265462428 0 0 0 0
34824500 0.1506298385247138 0.1823984898013564 0.035281173 0.26869589 0 0 0 0
37804000 0.13834222497165863 0.11701271575077538 0.093282043 0.258007138 0 0 0 0
40783500 0.11172244729245843 0.06046836145554904 0.147401958 0.234099641 0 0 0 0
43763000 0.07318535479728863 0.014889648137564895 0.194687917 0.198493316 0 0 0 0
46742500 0.026672446408010465 -0.01806367200572479 0.23271498 0.152987763 0 0 0 0
49722000 -0.026051744603031512 -0.03699448000325903 0.259337991 0.09997683 0 0 0 0
52701500 -0.0815561097681961 -0.042482930628176464 0.273278176 0.042755596 0 0 0 0
55681000 -0.13771722102115022 -0.03408276532537371 0.273900806 -0.015864886 0 0 0 0
58660500 -0.1915074427459677 -0.012381953696129615 0.261288344 -0.072879567 0 0 0 0
61640000 -0.24183381674856907 0.02138848760247654 0.236069545 -0.125380858 0 0 0 0
64619500 -0.2867918106007659 0.06765307246159588 0.19926621 -0.170488685 0 0 0 0
67599000 -0.32481841151882257 0.12533285962589685 0.152579948 -0.205301761 0 0 0 0
70578500 -0.3548327844954914 0.19580708435588107 0.098296202 -0.227352336 0 0 0 0
73558000 -0.37332881613623986 0.2803383765301867 0.039639849 -0.234082922 0 0 0 0
76537500 -0.37626176073567313 0.3793953532050749 -0.018776731 -0.223339781 0 0 0 0
79517000 -0.3554389206342918 0.49344999608753776 -0.070345096 -0.194069653 0 0 0 0
82496500 -0.299856502938021 0.6184726814870881 -0.107202902 -0.147896468 0 0 0 0
85476000 -0.19664529953866747 0.7410883392425586 -0.120605058 -0.091458886 0 0 0 0
88455500 -0.039052617124408 0.838453608231661 -0.105138219 -0.038038209 0 0 0 0
91435000 0.16186473167301754 0.8794283486957374 -0.064812645 -0.004820365 0 0 0 0
94414500 0.37722150537495003 0.8400449391404938 -0.015985153 -0.004361274 0 0 0 0
97394000 0.56124245724782 0.72305488873908 0.019635966 -0.035045929 0 0 0 0
100373500 0.6849491545583746 0.5551448334139939 0.027597455 -0.081685774 0 0 0 0
103353000 0.7405960715384585 0.37202675022625104 0.006317895 -0.125828236 0 0 0 0
106332500 0.7371586560102725 0.20079204320083824 -0.035935766 -0.154644861 0 0 0 0
109312000 0.6909002652679253 0.05658209574497752 -0.088472567 -0.162689551 0 0 0 0
112291500 0.6180478642615982 -0.055319686619338365 -0.141753226 -0.149921774 0 0 0 0
115271000 0.5312766391393061 -0.13485554297242927 -0.188631385 -0.119167849 0 0 0 0
118250500 0.4396235617139448 -0.1843281374890862 -0.224354758 -0.074687533 0 0 0 0
121230000 0.3499112652119298 -0.2071333446276489 -0.245961725 -0.021055812 0 0 0 0
124209500 0.2682917693373862 -0.20745544553873485 -0.252233415 0.036759477 0 0 0 0
127189000 0.19761667243762512 -0.18947835472964206 -0.24329479 0.094397746 0 0 0 0
130168500 0.14087100973460628 -0.15859553910893207 -0.220288991 0.147924944 0 0 0 0
133148000 0.09830940162453879 -0.11942379367795022 -0.185060322 0.194248974 0 0 0 0
136127500 0.07023740973151872 -0.0754012249478654 -0.140093058 0.230772644 0 0 0 0
139107000 0.056124861889961075 -0.029927326545538833 -0.08832205 0.255927205 0 0 0 0
142086500 0.053065125446036636 0.013491271508957835 -0.032550621 0.268719404 0 0 0 0
145066000 0.05990049525049153 0.054472473595996516 0.024444235 0.268605113 0 0 0 0
148045500 0.0751746708198091 0.09236560867384928 0.079534724 0.255790382 0 0 0 0
151025000 0.09800655150367872 0.1269391448065802 0.130300477 0.231620341 0 0 0 0
154004500 0.12676169724343453 0.15676329311087975 0.174096316 0.196903243 0 0 0 0
156984000 0.1632094254213626 0.18382964265080254 0.209203705 0.153162539 0 0 0 0
159963500 0.20800112872013396 0.20736214910089815 0.233236104 0.102414272 0 0 0 0
162943000 0.26171890012422117 0.2251350791718546 0.244270026 0.04706937 0 0 0 0
165922500 0.3268027931491366 0.23501309515750318 0.240789249 -0.00969542 0 0 0 0
168902000 0.405520577418868 0.2324458130981263 0.221629455 -0.06347078 0 0 0 0
171881500 0.4962618886004639 0.2106369581638656 0.187216967 -0.109093539 0 0 0 0
174861000 0.5950258614020252 0.1588662606672735 0.140324383 -0.140354692 0 0 0 0
177840500 0.6930456309836948 0.06999804184343145 0.086397841 -0.151993706 0 0 0 0
180820000 0.7731596705373507 -0.06299723365738004 0.034803248 -0.140680491 0 0 0 0
183799500 0.8132446026601439 -0.2364164746351148 -0.003182154 -0.108506448 0 0 0 0
186779000 0.7908846663211889 -0.4331341285610451 -0.017067441 -0.064375609 0 0 0 0
189758500 0.6921745440018727 -0.6246144842221597 -0.002604019 -0.023300854 0 0 0 0
192738000 0.5255779579820123 -0.7691210569434468 0.034242223 -0.001098694 0 0 0 0
195717500 0.3187540825559889 -0.8397060451416942 0.079068996 -0.007423707 0 0 0 0
198697000 0.11281654724459159 -0.83113684414448 0.114533998 -0.041452862 0 0 0 0
201676500 -0.059563870452017935 -0.757073195997041 0.128025308 -0.092967361 0 0 0 0
204656000 -0.18108681916505984 -0.6450809868360362 0.115512192 -0.148241519 0 0 0 0
207635500 -0.25006146103881394 -0.5234724868823505 0.08012019 -0.195224851 0 0 0 0
210615000 -0.2758871795241354 -0.4077451521651837 0.028931185 -0.226641848 0 0 0 0
213594500 -0.27170176793152767 -0.3103234393844309 -0.029863731 -0.239512577 0 0 0 0
216574000 -0.249153837372662 -0.23266316178351945 -0.089637428 -0.234057024 0 0 0 0
219553500 -0.21701348861276903 -0.1745576754889142 -0.144757151 -0.212475806 0 0 0 0
222533000 -0.18158205680732736 -0.13227321471866682 -0.191864922 -0.177946567 0 0 0 0
225512500 -0.14572856683853777 -0.1027154891779146 -0.228603288 -0.133683413 0 0 0 0
228492000 -0.11142464103595252 -0.08236930020180097 -0.253924667 -0.082748748 0 0 0 0
231471500 -0.07790535402537628 -0.06876903319821603 -0.26715821 -0.02782165 0 0 0 0
234451000 -0.04503254526052218 -0.06107476863367624 -0.26809132 0.028428204 0 0 0 0
237430500 -0.010967848683377251 -0.05857336478570899 -0.256853103 0.083474732 0 0 0 0
240410000 0.023698672648967287 -0.06308651489979734 -0.233868747 0.134816005 0 0 0 0
243389500 0.06064588061131064 -0.07568393639138835 -0.200014457 0.179799467 0 0 0 0
246369000 0.09658809790164975 -0.09772341825182683 -0.156925678 0.216362774 0 0 0 0
249348500 0.13092827622384356 -0.13167663111391006 -0.10664682 0.242123916 0 0 0 0
252328000 0.15954481305210702 -0.17897808896075484 -0.051578145 0.255591034 0 0 0 0
255307500 0.17809902387730037 -0.24077431067039312 0.004990758 0.255513936 0 0 0 0
258287000 0.18116170097692366 -0.31350571886724354 0.059572912 0.241415068 0 0 0 0
261266500 0.16310451467702183 -0.396956765841169 0.108324401 0.213708996 0 0 0 0
264246000 0.11984973528140076 -0.483836715516949 0.147017434 0.174468159 0 0 0 0
267225500 0.04665116131303043 -0.5680485939703902 0.172425508 0.12663266 0 0 0 0
270205000 -0.05841510237867488 -0.6386206105151413 0.181384235 0.074917122 0 0 0 0
273184500 -0.19448560043739568 -0.6831556977686072 0.17250134 0.024775503 0 0 0 0
276164000 -0.3568674777822349 -0.6885359613658478 0.146369472 -0.01625083 0 0 0 0
279143500 -0.5301645118699728 -0.6406998166937679 0.106920063 -0.040524329 0 0 0 0
282123000 -0.6953109783879814 -0.5279610198743722 0.063055098 -0.040880586 0 0 0 0
285102500 -0.8200905266964279 -0.35397839812556 0.028616517 -0.015655238 0 0 0 0
288082000 -0.8708591943847986 -0.138437966900111 0.019403317 0.026792785 0 0 0 0
291061500 -0.8364854416505417 0.07407731989276176 0.042887158 0.067380316 0 0 0 0
294041000 -0.7337346851831432 0.241709983573465 0.09118928 0.085967496 0 0 0 0
297020500 -0.5991602686294726 0.3460507176680463 0.145315483 0.073372751 0 0 0 0
300000000 -0.48477439408376943 0.40047652734181033 0.196100652 0.03258213 0 0 0 0
