# Hz S RI R 50
2050000 0.00053427 7.656e-05
5029500 0.000514496 1.8434e-05
8009000 0.000559947 -6.2543e-05
10988500 0.00054073 -5.8415e-05
13968000 0.00055264 -8.3711e-05
16947500 0.000517034 -9.1182e-05
19927000 0.000539138 -0.000118031
22906500 0.000520675 -0.000113637
25886000 0.000571349 -0.000164914
28865500 0.000548621 -0.000201594
31845000 0.00054311 -0.000199394
34824500 0.000517489 -0.000232893
37804000 0.00055269 -0.000269279
40783500 0.000522292 -0.000285536
43763000 0.000534561 -0.000308205
46742500 0.000547303 -0.000323389
49722000 0.000528402 -0.00033697
52701500 0.000519732 -0.000375889
55681000 0.00049268 -0.000379563
58660500 0.000506096 -0.000402974
61640000 0.000516173 -0.000441043
64619500 0.000512429 -0.000438072
67599000 0.000497902 -0.00047483
70578500 0.00050219 -0.000503014
73558000 0.00047052 -0.000527752
76537500 0.00047611 -0.000531437
79517000 0.000469843 -0.000572703
82496500 0.000475951 -0.000597019
85476000 0.000457401 -0.000612752
88455500 0.000470832 -0.000658931
91435000 0.000424947 -0.000661073
94414500 0.000443773 -0.000700895
97394000 0.000383437 -0.000697523
100373500 0.000390277 -0.000735238
103353000 0.000406008 -0.000773968
106332500 0.000404826 -0.000759096
109312000 0.000367062 -0.000789045
112291500 0.000367499 -0.000820415
115271000 0.000387146 -0.000814948
118250500 0.000352815 -0.000835078
121230000 0.000346197 -0.000863727
124209500 0.000352294 -0.000883653
127189000 0.000299569 -0.00093206
130168500 0.000323191 -0.000925343
133148000 0.000327424 -0.000947518
136127500 0.000291691 -0.000940539
139107000 0.000285977 -0.000974871
142086500 0.000273511 -0.000993388
145066000 0.000279611 -0.001089616
148045500 0.000227796 -0.001034429
151025000 0.000255105 -0.001024982
154004500 0.000260659 -0.001086372
156984000 0.000242285 -0.001135375
159963500 0.000167074 -0.001123407
162943000 0.000201318 -0.001156542
165922500 0.000204094 -0.001162103
168902000 0.000197219 -0.001230042
171881500 0.000142099 -0.001205604
174861000 0.000131898 -0.001238081
177840500 0.000124909 -0.001258677
180820000 0.000105849 -0.001266687
183799500 0.000125593 -0.001296902
186779000 9.9329e-05 -0.001311718
189758500 4.3974e-05 -0.001333377
192738000 2.2244e-05 -0.001371921
195717500 1.9756e-05 -0.001343292
198697000 -5.714e-06 -0.001391004
201676500 -2.3716e-05 -0.001418874
204656000 -5.5115e-05 -0.00139728
207635500 -6.0679e-05 -0.001459279
210615000 -3.4366e-05 -0.001458328
213594500 -0.000109749 -0.001496164
216574000 -0.000112829 -0.00146817
219553500 -9.3118e-05 -0.001460146
222533000 -0.000147385 -0.001577898
225512500 -0.000174015 -0.001467324
228492000 -0.000130606 -0.001522601
231471500 -0.000207722 -0.001513234
234451000 -0.000189273 -0.001579521
237430500 -0.00023018 -0.001627324
240410000 -0.000233854 -0.001546478
243389500 -0.000237593 -0.001610622
246369000 -0.000368923 -0.001648195
249348500 -0.000287327 -0.001658029
252328000 -0.000247938 -0.001666947
255307500 -0.000360187 -0.001715137
258287000 -0.000334162 -0.001642294
261266500 -0.000361662 -0.001694006
264246000 -0.000422461 -0.001696391
267225500 -0.000405145 -0.001763012
270205000 -0.000434117 -0.001722541
273184500 -0.000415743 -0.001734168
276164000 -0.000451204 -0.00184551
279143500 -0.000505277 -0.001750618
282123000 -0.000476466 -0.001838629
285102500 -0.000550922 -0.00183566
288082000 -0.000601351 -0.001860408
291061500 -0.000493353 -0.001960188
294041000 -0.000503049 -0.001915441
297020500 -0.000509326 -0.002005605
300000000 -0.001444197 -0.003170885
