# Hz S RI R 50
2050000 0.087835349 0.000241591
5029500 0.087734617 -0.000607589
8009000 0.087761424 -0.001399036
10988500 0.087702274 -0.002239063
13968000 0.087617173 -0.003015254
16947500 0.087539546 -0.003823691
19927000 0.087465718 -0.004605436
22906500 0.087373986 -0.005404948
25886000 0.087298795 -0.006217764
28865500 0.087164573 -0.00696176
31845000 0.087075576 -0.007783659
34824500 0.086971178 -0.008618844
37804000 0.086828723 -0.009407804
40783500 0.086734205 -0.010212264
43763000 0.086541816 -0.011031031
46742500 0.08640135 -0.011842488
49722000 0.086273238 -0.012682744
52701500 0.086116485 -0.013464998
55681000 0.085900403 -0.014302012
58660500 0.085720539 -0.015056081
61640000 0.085542812 -0.015876157
64619500 0.08537846 -0.016676655
67599000 0.085140079 -0.017453351
70578500 0.084927134 -0.018257735
73558000 0.084679096 -0.019034529
76537500 0.084464922 -0.019809529
79517000 0.084233686 -0.020552469
82496500 0.083962 -0.021349076
85476000 0.083700269 -0.022146893
88455500 0.083432249 -0.022920161
91435000 0.083172209 -0.023650897
94414500 0.0828721 -0.024422993
97394000 0.082629837 -0.025144284
100373500 0.082336276 -0.025884961
103353000 0.082060441 -0.026651989
106332500 0.081736534 -0.027367912
109312000 0.081457808 -0.028125597
112291500 0.081076636 -0.02881278
115271000 0.080785408 -0.029560007
118250500 0.080438092 -0.030294898
121230000 0.080103598 -0.031032025
124209500 0.079732201 -0.031723007
127189000 0.079353429 -0.032424952
130168500 0.079002492 -0.033110149
133148000 0.078638866 -0.033835902
136127500 0.078232407 -0.034551788
139107000 0.07784599 -0.035199128
142086500 0.077444322 -0.035932306
145066000 0.077043533 -0.036573123
148045500 0.076652169 -0.037242744
151025000 0.076258368 -0.037982005
154004500 0.075795479 -0.038599058
156984000 0.075375087 -0.039270628
159963500 0.074935771 -0.039922919
162943000 0.074524678 -0.040585838
165922500 0.074045144 -0.041273355
168902000 0.073535159 -0.04187297
171881500 0.073090657 -0.04252538
174861000 0.072611026 -0.043196715
177840500 0.072100669 -0.043765719
180820000 0.07168857 -0.04445552
183799500 0.071123838 -0.045057825
186779000 0.070652447 -0.045607406
189758500 0.07015071 -0.046225022
192738000 0.069666668 -0.046829838
195717500 0.069115921 -0.047424491
198697000 0.068581573 -0.047979813
201676500 0.068070352 -0.048595361
204656000 0.067554339 -0.049145709
207635500 0.066995628 -0.049744442
210615000 0.066442184 -0.050307296
213594500 0.065925098 -0.050779432
216574000 0.065344452 -0.051363881
219553500 0.064792215 -0.051876034
222533000 0.064235702 -0.052405457
225512500 0.06364122 -0.053008541
228492000 0.063117466 -0.053500175
231471500 0.062476951 -0.05399489
234451000 0.06192157 -0.054479766
237430500 0.061342488 -0.054916691
240410000 0.060749556 -0.055500503
243389500 0.060140378 -0.055909726
246369000 0.059511952 -0.056361243
249348500 0.058934092 -0.056824844
252328000 0.058328408 -0.057218264
255307500 0.057696908 -0.057691849
258287000 0.057095538 -0.058103665
261266500 0.056479491 -0.058532584
264246000 0.055937815 -0.058958675
267225500 0.055232595 -0.059414699
270205000 0.054554071 -0.059798397
273184500 0.054000262 -0.060244139
276164000 0.053341142 -0.060582719
279143500 0.052704952 -0.06099781
282123000 0.052179493 -0.061261303
285102500 0.05151087 -0.061702474
288082000 0.050921026 -0.0621064
291061500 0.050276871 -0.062435965
294041000 0.049639169 -0.062783174
297020500 0.048998538 -0.063068084
300000000 0.056541565 -0.069152496
