# Hz S RI R 50
2050000 -0.094481624 -0.000164642
5029500 -0.094390392 0.000583841
8009000 -0.094343185 0.001323486
10988500 -0.09427943 0.002113763
13968000 -0.094212837 0.002926637
16947500 -0.094137176 0.00364221
19927000 -0.094035327 0.004435485
22906500 -0.093974545 0.005189753
25886000 -0.093896023 0.005965873
28865500 -0.093796066 0.006734191
31845000 -0.093686781 0.007536195
34824500 -0.093592196 0.008325234
37804000 -0.093423634 0.009116864
40783500 -0.093315064 0.009864265
43763000 -0.093210071 0.010664819
46742500 -0.093072898 0.011465682
49722000 -0.092904336 0.012272233
52701500 -0.09277518 0.013055261
55681000 -0.09261731 0.013821181
58660500 -0.09242396 0.014616073
61640000 -0.092253029 0.015399825
64619500 -0.092050455 0.016153912
67599000 -0.091899678 0.016933677
70578500 -0.091653883 0.017672333
73558000 -0.091464869 0.018421784
76537500 -0.09124802 0.019202653
79517000 -0.091030135 0.019949149
82496500 -0.090814925 0.020742196
85476000 -0.090592093 0.021498091
88455500 -0.090354412 0.022232783
91435000 -0.09009882 0.02294276
94414500 -0.089852377 0.02368552
97394000 -0.089590802 0.024444511
100373500 -0.089306384 0.025191556
103353000 -0.089058458 0.025872405
106332500 -0.088774658 0.026602266
109312000 -0.088495194 0.02728497
112291500 -0.088174283 0.028057701
115271000 -0.087928667 0.028762286
118250500 -0.087583251 0.029465934
121230000 -0.087262943 0.030177136
124209500 -0.086964488 0.030838256
127189000 -0.08656793 0.031609281
130168500 -0.086254268 0.032289911
133148000 -0.085933454 0.03295454
136127500 -0.085571475 0.033640969
139107000 -0.085209086 0.034304045
142086500 -0.084848716 0.035018857
145066000 -0.084452696 0.035673514
148045500 -0.084080666 0.036357026
151025000 -0.083736993 0.036986269
154004500 -0.083300419 0.03768194
156984000 -0.082925878 0.038326773
159963500 -0.082480348 0.039005812
162943000 -0.082078143 0.039640597
165922500 -0.081720672 0.040283508
168902000 -0.081236198 0.040915675
171881500 -0.080809779 0.041576117
174861000 -0.080380775 0.042187791
177840500 -0.079971015 0.042812477
180820000 -0.079572074 0.043461725
183799500 -0.079089425 0.043993871
186779000 -0.078632839 0.044641092
189758500 -0.078127704 0.045233178
192738000 -0.077625811 0.045806895
195717500 -0.077241986 0.046375844
198697000 -0.076721481 0.046942442
201676500 -0.076290659 0.04760443
204656000 -0.075721427 0.048181451
207635500 -0.075267806 0.048703286
210615000 -0.074682861 0.049294445
213594500 -0.07422553 0.049866728
216574000 -0.073678083 0.050398662
219553500 -0.073150001 0.050868734
222533000 -0.072680316 0.051456607
225512500 -0.072175942 0.051978688
228492000 -0.071611456 0.052544198
231471500 -0.071018919 0.053071055
234451000 -0.070577897 0.053594958
237430500 -0.069972261 0.054059863
240410000 -0.069437585 0.054589975
243389500 -0.068868964 0.055081326
246369000 -0.068305946 0.055537134
249348500 -0.067835547 0.055977609
252328000 -0.067155167 0.056474279
255307500 -0.066598504 0.056981116
258287000 -0.065974146 0.057405505
261266500 -0.065445452 0.057770878
264246000 -0.064918875 0.058245155
267225500 -0.064438201 0.058637015
270205000 -0.06367278 0.059069361
273184500 -0.063200749 0.059553742
276164000 -0.062496248 0.059885714
279143500 -0.061958141 0.060313235
282123000 -0.061230532 0.060672994
285102500 -0.060765054 0.061059184
288082000 -0.060095846 0.06138876
291061500 -0.059675794 0.061715643
294041000 -0.059026669 0.062106709
297020500 -0.058543607 0.062431346
300000000 -0.067215673 0.068114079
