# HZ S RI R 50
200000000 0.5198309772338273 -0.7040806347337841
206000000 0.46108706833616736 -0.7436047392593703
212000000 0.39311806720058096 -0.7781054905048072
218000000 0.31526748155505785 -0.8125239474152683
224000000 0.22670154108366353 -0.8338020879008479
230000000 0.1303040191230071 -0.8433983564378651
236000000 0.02548352284662761 -0.8406246264378774
242000000 -0.0874546766295818 -0.8234165239926355
248000000 -0.20509616076540055 -0.7825994250276717
254000000 -0.32033528360163205 -0.7127323316434525
260000000 -0.4269914773188775 -0.6184488398022197
266000000 -0.5176850085379378 -0.4985832153930201
272000000 -0.5827989603515559 -0.35525876951619606
278000000 -0.6159151466739181 -0.1957582400158709
284000000 -0.6117524415687371 -0.02898518427523929
290000000 -0.5684125557338169 0.13451588819812269
296000000 -0.486870347810649 0.2823564662580439
302000000 -0.3677092190179508 0.4103712522939555
308000000 -0.24337384348563043 0.5073237697368852
314000000 -0.10356753907542951 0.5548898044127225
320000000 0.03883444015468462 0.5836912515082322
326000000 0.17505944014778965 0.5816264955276611
332000000 0.29523382368569606 0.555423942038966
338000000 0.40443133738709 0.5115702240624399
344000000 0.5031149569065171 0.45122248880542754
350000000 0.5799855532960503 0.3890377400785655
356000000 0.6395795678782361 0.31993587858828776
362000000 0.6934376801197056 0.23862415881254997
368000000 0.7298377303800037 0.16035027744637861
374000000 0.7525136963663223 0.08187159065545482
380000000 0.7698407197387098 0.005111408697683616
386000000 0.765488744867819 -0.07443269911868121
392000000 0.7492867468362414 -0.151509055780124
398000000 0.712977407469644 -0.20711681269943563
404000000 0.6684357034334749 -0.24942177903780116
410000000 0.6371333242460387 -0.2616984393347053
416000000 0.6323160770469951 -0.2792824844789761
422000000 0.622168993833633 -0.2928445622734317
428000000 0.635042057919758 -0.3224546992997505
434000000 0.6413489269028104 -0.3614300345442825
440000000 0.6383003490806392 -0.4107384398608459
446000000 0.6354257279300264 -0.4597810247699173
452000000 0.6184346566225437 -0.5113094850424079
458000000 0.5980523718431748 -0.5766885423698314
464000000 0.5514135238156961 -0.6283823435839883
470000000 0.4945798381421855 -0.6769185147588528
476000000 0.45846889177278194 -0.7255658377616323
482000000 0.3878106122772452 -0.7691425986580935
488000000 0.3222004906436423 -0.7906043201540267
494000000 0.240047204278405 -0.8373130727748282
500000000 0.17033143867511547 -0.8498946298234328
506000000 0.08269406544193322 -0.8541580696984639
512000000 -0.02192719598890141 -0.8421275057633466
518000000 -0.12016285131780936 -0.8182784609285858
524000000 -0.21418274712610805 -0.7870564449678444
530000000 -0.29540234033141094 -0.7411697333601248
536000000 -0.39164442977850544 -0.6639362055744065
542000000 -0.46488475821623665 -0.5660421939508321
548000000 -0.5393979756667131 -0.45489984510897097
554000000 -0.5734071909063829 -0.3332572025816833
560000000 -0.6001475803073663 -0.18999066309167276
566000000 -0.577183821061206 -0.03516921541991772
572000000 -0.5276022118706517 0.10685265636328849
578000000 -0.4572761218101698 0.23488735747399186
584000000 -0.3435896111184962 0.34456348168186646
590000000 -0.19919652391813936 0.4284823232377907
596000000 -0.07041894777546617 0.4783807094589031
602000000 0.07927268751999628 0.47860335278903915
608000000 0.20656512676770827 0.4670332359318666
614000000 0.32292239668341005 0.4274422301654747
620000000 0.43477687665345693 0.36608915871204134
626000000 0.5043385076283649 0.286925388481256
632000000 0.5756026350333775 0.20836940055485637
638000000 0.6150066518097406 0.13186257501584228
644000000 0.634582235745774 0.046548254352928066
650000000 0.651511422996523 -0.012947602153061474
656000000 0.6615401472730558 -0.07732723619280192
662000000 0.6757363874982885 -0.13854118583577693
668000000 0.6734604609799779 -0.1929025433416295
674000000 0.6793987418200991 -0.25894081202181546
680000000 0.6827984157985849 -0.33597135600168637
686000000 0.6671702481588169 -0.39292779741496664
692000000 0.6326603194925384 -0.4471965270055407
698000000 0.6097009523735716 -0.5035733497335446
704000000 0.5848496195923816 -0.5495344891478152
710000000 0.5547017740473594 -0.6069336381027236
716000000 0.5196845957920174 -0.6558079534062646
722000000 0.4491134213183764 -0.6880383930218741
728000000 0.43467192837722035 -0.7191458196122079
734000000 0.3766682793313548 -0.7663415535943888
740000000 0.3179823211962585 -0.8171593694990982
746000000 0.29741670248171703 -0.8211112580526857
752000000 0.26309517863501874 -0.8512959888454614
758000000 0.15465557007732625 -0.8994042916768955
764000000 0.10242366311875904 -0.9039192441571781
770000000 0.06737659409833302 -0.9096502216010968
776000000 -0.03786835066066599 -0.9279780562722754
782000000 -0.07621614840435546 -0.9146748561458836
788000000 -0.16528219802789357 -0.8931252321377486
794000000 -0.24047335436394757 -0.8828429138817131
800000000 -0.2886939256269423 -0.8533734502912453
