# HZ S RI R 50
200000000 0.4177521889406416 0.5346367786200478
206000000 0.499454686199793 0.4899403234136246
212000000 0.5703106467095039 0.4404494614797603
218000000 0.6358772658314129 0.3835872125318144
224000000 0.6903716930293835 0.3241211673946131
230000000 0.7345865265606112 0.2607130557091903
236000000 0.7734818617328686 0.20022442614485556
242000000 0.80680952136391 0.13300939126536737
248000000 0.8293894395862768 0.061766372303874724
254000000 0.8434419397129358 -0.006321292428307627
260000000 0.8521629338742381 -0.074030219176639
266000000 0.8527932139162179 -0.14161740946850485
272000000 0.84887750058402 -0.20617733527424223
278000000 0.8382985522814758 -0.27266651037644285
284000000 0.821151100752107 -0.33454594931102
290000000 0.8014966698917066 -0.39687945320905793
296000000 0.7745075482818455 -0.45527406204877535
302000000 0.7377141300684766 -0.5285412576242536
308000000 0.6947126103828077 -0.5732496641656327
314000000 0.6540409142004396 -0.6299593240225768
320000000 0.6005683442080637 -0.67765418276533
326000000 0.5420476738969978 -0.7168705747835556
332000000 0.47518076689473654 -0.7611434363254715
338000000 0.40359851595912805 -0.7932972865611638
344000000 0.33681499493649186 -0.8197152502384765
350000000 0.2523648925184867 -0.8261736374933984
356000000 0.1693975941409636 -0.839812797429283
362000000 0.09147387871116834 -0.8338381110306934
368000000 0.009723988060260948 -0.8296244862654385
374000000 -0.08407770488097387 -0.8155151434414454
380000000 -0.16709898529722872 -0.7869653753884767
386000000 -0.2670594611127124 -0.742059233503997
392000000 -0.3596074854981977 -0.6658302732837303
398000000 -0.43414015365852654 -0.5792466469913435
404000000 -0.4969752017282358 -0.47285968142727025
410000000 -0.5394604137655884 -0.3553070202566361
416000000 -0.5748801732442834 -0.2394350348496362
422000000 -0.5808142185054286 -0.09686361167246076
428000000 -0.562112520790572 0.04074629798074853
434000000 -0.504853316858937 0.18218707312946433
440000000 -0.4191195300754448 0.30477323301383746
446000000 -0.31311032940320344 0.40658460036157384
452000000 -0.196629095078212 0.4918331388644614
458000000 -0.05957970802288151 0.5303371881195368
464000000 0.08687677770424136 0.5388169843099169
470000000 0.20359667679133114 0.5377823031122475
476000000 0.32443323272148566 0.5073377251250347
482000000 0.4285440582694663 0.4539581803082304
488000000 0.5190304482095756 0.3957193250014503
494000000 0.5942847533205569 0.3280273810256399
500000000 0.6609825895336824 0.24811766291391543
506000000 0.7059681768401521 0.175005985612096
512000000 0.7337597358984411 0.09569776179177975
518000000 0.7599359938060677 0.01813142138722662
524000000 0.7731374520904402 -0.05766865705373555
530000000 0.7871854797257148 -0.1323796043026365
536000000 0.7744359249480846 -0.2082515923688596
542000000 0.7636859743101798 -0.2761849797585819
548000000 0.7515610145732015 -0.3469036613211659
554000000 0.7257547547186082 -0.4034747918756209
560000000 0.6932464955596912 -0.46870887433067804
566000000 0.6571529432896145 -0.520536204673166
572000000 0.6221973632174057 -0.5756257580924045
578000000 0.5686721683485234 -0.6304268825679207
584000000 0.5227782153749759 -0.6734794162454154
590000000 0.4805715415559191 -0.7042747459846321
596000000 0.40362862536448324 -0.7385666439983689
602000000 0.3476585995428333 -0.76677247410641
608000000 0.2929257673514169 -0.7757722810274256
614000000 0.2213234085974294 -0.7838959858832315
620000000 0.17157189975789716 -0.7839710901628891
626000000 0.10417571324406712 -0.7861233203829618
632000000 0.051981300979851236 -0.7751752466372966
638000000 -0.013534853323805869 -0.766524684357764
644000000 -0.07226692857805499 -0.7513758720295275
650000000 -0.12652606403215538 -0.7275852837577796
656000000 -0.20411680420427283 -0.6879335293471595
662000000 -0.25342438437059 -0.6501134519222078
668000000 -0.30353470536764315 -0.5989817366053689
674000000 -0.35299047474140866 -0.568284269470066
680000000 -0.4351782192754977 -0.5040823613003
686000000 -0.48700067917077844 -0.41268014193153285
692000000 -0.5222766254574729 -0.30920832830889095
698000000 -0.5385058353759721 -0.19868965326556015
704000000 -0.527786411257469 -0.07978738819502508
710000000 -0.5042663799834373 0.04293164764534804
716000000 -0.44696254312266526 0.17136685873029325
722000000 -0.35636257804696136 0.2916072041638868
728000000 -0.2432071479490623 0.38942102225624287
734000000 -0.1233300084348216 0.44453600823997486
740000000 0.01869786979675038 0.4706496293314576
746000000 0.16500046696495427 0.46061536181873414
752000000 0.308494681618655 0.43756414897172546
758000000 0.4007486421717908 0.39761167977218714
764000000 0.5134997823002239 0.31976298691032035
770000000 0.5978242225144961 0.2278966653005495
776000000 0.6519697692902323 0.1484093013550062
782000000 0.7042912162036836 0.050301709832016435
788000000 0.7190563831159793 -0.01609953797300272
794000000 0.7543435298452368 -0.14010616062343498
800000000 0.754160160870787 -0.20083166411957357
