# Hz S RI R 50
2.050000000000000000e+06 1.750231245392478568e-02 2.860417890711012406e-02 9.511988107682390892e-01 -2.075948944196408241e-01 9.511988107682390892e-01 -2.075948944196408241e-01 1.750231245392478568e-02 2.860417890711012406e-02
5.029500000000000000e+06 5.205892929628531257e-02 3.639151789777805845e-02 8.361927111682521119e-01 -4.687323627953479677e-01 8.361927111682521119e-01 -4.687323627953479677e-01 5.205892929628531257e-02 3.639151789777805845e-02
8.009000000000000000e+06 7.786007661114789646e-02 2.340470401244014106e-02 6.608641596139990249e-01 -6.793715002158936533e-01 6.608641596139990249e-01 -6.793715002158936533e-01 7.786007661114789646e-02 2.340470401244014106e-02
1.098850000000000000e+07 9.145846120120083855e-02 -2.684734694720663627e-03 4.387091230498083583e-01 -8.313549018561344761e-01 4.387091230498083583e-01 -8.313549018561344761e-01 9.145846120120083855e-02 -2.684734694720663627e-03
1.396800000000000000e+07 8.805013666084880730e-02 -3.053854735870112011e-02 1.856306200595768674e-01 -9.155653114471699050e-01 1.856306200595768674e-01 -9.155653114471699050e-01 8.805013666084880730e-02 -3.053854735870112011e-02
1.694750000000000000e+07 7.055981434209476766e-02 -5.223212609171069137e-02 -7.942089349614317451e-02 -9.258652911149998221e-01 -7.942089349614317451e-02 -9.258652911149998221e-01 7.055981434209476766e-02 -5.223212609171069137e-02
1.992700000000000000e+07 4.458593851618827819e-02 -6.162941500191387173e-02 -3.353028348340895137e-01 -8.623747054800806611e-01 -3.353028348340895137e-01 -8.623747054800806611e-01 4.458593851618827819e-02 -6.162941500191387173e-02
2.290650000000000000e+07 1.841881657482708975e-02 -5.633129586162297087e-02 -5.620176336048785526e-01 -7.295799801753307667e-01 -5.620176336048785526e-01 -7.295799801753307667e-01 1.841881657482708975e-02 -5.633129586162297087e-02
2.588600000000000000e+07 8.701151315151922638e-04 -3.829829703869517404e-02 -7.412110704446829290e-01 -5.390953278435514084e-01 -7.412110704446829290e-01 -5.390953278435514084e-01 8.701151315151922638e-04 -3.829829703869517404e-02
2.886550000000000000e+07 -3.420339560791616374e-03 -1.497264898635538612e-02 -8.586419886099024845e-01 -3.072740497147127270e-01 -8.586419886099024845e-01 -3.072740497147127270e-01 -3.420339560791616374e-03 -1.497264898635538612e-02
3.184500000000000000e+07 5.200896651374061451e-03 5.859086585399944126e-03 -9.056881119267086167e-01 -5.377046185548613882e-02 -9.056881119267086167e-01 -5.377046185548613882e-02 5.200896651374061451e-03 5.859086585399944126e-03
3.482450000000000000e+07 2.447553544386379953e-02 1.642453541695815256e-02 -8.798633312607632151e-01 2.012530710232438291e-01 -8.798633312607632151e-01 2.012530710232438291e-01 2.447553544386379953e-02 1.642453541695815256e-02
3.780400000000000000e+07 4.563912208112304997e-02 1.417702214507371439e-02 -7.849846291596197512e-01 4.371999635810803753e-01 -7.849846291596197512e-01 4.371999635810803753e-01 4.563912208112304997e-02 1.417702214507371439e-02
4.078350000000000000e+07 6.154691793020729967e-02 -1.124709194562689739e-03 -6.292903717307061218e-01 6.357104287710503288e-01 -6.292903717307061218e-01 6.357104287710503288e-01 6.154691793020729967e-02 -1.124709194562689739e-03
4.376300000000000000e+07 6.571716016195863763e-02 -2.299018034082772610e-02 -4.248625041077622178e-01 7.831979647184031945e-01 -4.248625041077622178e-01 7.831979647184031945e-01 6.571716016195863763e-02 -2.299018034082772610e-02
4.674250000000000000e+07 5.610857346326537237e-02 -4.358325642433637237e-02 -1.887657093601229907e-01 8.672951273781177584e-01 -1.887657093601229907e-01 8.672951273781177584e-01 5.610857346326537237e-02 -4.358325642433637237e-02
4.972200000000000000e+07 3.622654019419454391e-02 -5.667516863828731682e-02 6.038901961432714682e-02 8.828242025196612053e-01 6.038901961432714682e-02 8.828242025196612053e-01 3.622654019419454391e-02 -5.667516863828731682e-02
5.270150000000000000e+07 1.228042236289254852e-02 -5.647981190013968977e-02 3.044165693450912591e-01 8.283774464275360794e-01 3.044165693450912591e-01 8.283774464275360794e-01 1.228042236289254852e-02 -5.647981190013968977e-02
5.568100000000000000e+07 -8.267418114333839607e-03 -4.324361778261230638e-02 5.213588469692410632e-01 7.086561898656378311e-01 5.213588469692410632e-01 7.086561898656378311e-01 -8.267418114333839607e-03 -4.324361778261230638e-02
5.866050000000000000e+07 -1.727459889917982300e-02 -2.098702249443240575e-02 6.970704700271559418e-01 5.327294144193904790e-01 6.970704700271559418e-01 5.327294144193904790e-01 -1.727459889917982300e-02 -2.098702249443240575e-02
6.164000000000000000e+07 -1.310781107848257680e-02 2.499573676420244195e-03 8.152073080253395831e-01 3.158010153571518819e-01 8.152073080253395831e-01 3.158010153571518819e-01 -1.310781107848257680e-02 2.499573676420244195e-03
6.461950000000000000e+07 3.681683953291890569e-03 1.880893838420605313e-02 8.673437640456438391e-01 7.522043076801072925e-02 8.673437640456438391e-01 7.522043076801072925e-02 3.681683953291890569e-03 1.880893838420605313e-02
6.759900000000000000e+07 2.594622384436735124e-02 2.280225373193827537e-02 8.509622604451563266e-01 -1.685056282764063884e-01 8.509622604451563266e-01 -1.685056282764063884e-01 2.594622384436735124e-02 2.280225373193827537e-02
7.057850000000000000e+07 4.729211136131621085e-02 1.389148288747449334e-02 7.673945663870554990e-01 -3.976905550760065911e-01 7.673945663870554990e-01 -3.976905550760065911e-01 4.729211136131621085e-02 1.389148288747449334e-02
7.355800000000000000e+07 5.833405902269332699e-02 -6.177988571075437516e-03 6.255476647263035206e-01 -5.940741676775617153e-01 6.255476647263035206e-01 -5.940741676775617153e-01 5.833405902269332699e-02 -6.177988571075437516e-03
7.653750000000000000e+07 5.570740817476316220e-02 -2.910252058814041462e-02 4.345580919398307485e-01 -7.429994547231386637e-01 4.345580919398307485e-01 -7.429994547231386637e-01 5.570740817476316220e-02 -2.910252058814041462e-02
7.951700000000000000e+07 4.188212369223941883e-02 -4.646291632962547269e-02 2.106153569167791562e-01 -8.329511925468100486e-01 2.106153569167791562e-01 -8.329511925468100486e-01 4.188212369223941883e-02 -4.646291632962547269e-02
8.249650000000000000e+07 1.924088572679157061e-02 -5.274201631536762358e-02 -2.925227967333289547e-02 -8.566106423046361273e-01 -2.925227967333289547e-02 -8.566106423046361273e-01 1.924088572679157061e-02 -5.274201631536762358e-02
8.547600000000000000e+07 -3.338929387981687171e-03 -4.476268620328956865e-02 -2.658848636185275893e-01 -8.124074439026213179e-01 -2.658848636185275893e-01 -8.124074439026213179e-01 -3.338929387981687171e-03 -4.476268620328956865e-02
8.845550000000000000e+07 -1.756958880744175291e-02 -2.584041883603997378e-02 -4.807598791704630892e-01 -7.036717249009615260e-01 -4.807598791704630892e-01 -7.036717249009615260e-01 -1.756958880744175291e-02 -2.584041883603997378e-02
9.143500000000000000e+07 -1.785950184506565272e-02 -1.903377479916642167e-03 -6.563159443883763711e-01 -5.399612224860684817e-01 -6.563159443883763711e-01 -5.399612224860684817e-01 -1.785950184506565272e-02 -1.903377479916642167e-03
9.441450000000000000e+07 -5.271699246270893785e-03 1.877530020274768494e-02 -7.781821760517233511e-01 -3.340997881729910191e-01 -7.781821760517233511e-01 -3.340997881729910191e-01 -5.271699246270893785e-03 1.877530020274768494e-02
9.739400000000000000e+07 1.907223059123788061e-02 2.871476061653251491e-02 -8.382333585911309060e-01 -1.042709253468709490e-01 -8.382333585911309060e-01 -1.042709253468709490e-01 1.907223059123788061e-02 2.871476061653251491e-02
1.003735000000000000e+08 4.351098813399500997e-02 2.267789435338961671e-02 -8.320902286199821640e-01 1.327053680918852119e-01 -8.320902286199821640e-01 1.327053680918852119e-01 4.351098813399500997e-02 2.267789435338961671e-02
1.033530000000000000e+08 6.098451170861791948e-02 4.346916665265111376e-03 -7.607674208683056216e-01 3.569312488140112816e-01 -7.607674208683056216e-01 3.569312488140112816e-01 6.098451170861791948e-02 4.346916665265111376e-03
1.063325000000000000e+08 6.512492674236097789e-02 -2.276686938503073160e-02 -6.293466567859526961e-01 5.527305627063708870e-01 -6.293466567859526961e-01 5.527305627063708870e-01 6.512492674236097789e-02 -2.276686938503073160e-02
1.093120000000000000e+08 5.433066634161340391e-02 -4.855771976421272701e-02 -4.493277824443409063e-01 7.038398044639629925e-01 -4.493277824443409063e-01 7.038398044639629925e-01 5.433066634161340391e-02 -4.855771976421272701e-02
1.122915000000000000e+08 3.011877088441161296e-02 -6.345751285337127012e-02 -2.363036909845156186e-01 7.996004223496989693e-01 -2.363036909845156186e-01 7.996004223496989693e-01 3.011877088441161296e-02 -6.345751285337127012e-02
1.152710000000000000e+08 7.402470588901807931e-04 -6.335713789777529248e-02 -4.364961896896606131e-03 8.321674415774992228e-01 -4.364961896896606131e-03 8.321674415774992228e-01 7.402470588901807931e-04 -6.335713789777529248e-02
1.182505000000000000e+08 -2.395842220614079546e-02 -4.698991380111196270e-02 2.266777779914153357e-01 7.990171567716097822e-01 2.266777779914153357e-01 7.990171567716097822e-01 -2.395842220614079546e-02 -4.698991380111196270e-02
1.212300000000000000e+08 -3.551040090087230483e-02 -2.025546419501991074e-02 4.389223664748678755e-01 7.027416552391444471e-01 4.389223664748678755e-01 7.027416552391444471e-01 -3.551040090087230483e-02 -2.025546419501991074e-02
1.242095000000000000e+08 -3.104268867230929388e-02 9.014163835392731070e-03 6.157542580618673433e-01 5.512986104798717202e-01 6.157542580618673433e-01 5.512986104798717202e-01 -3.104268867230929388e-02 9.014163835392731070e-03
1.271890000000000000e+08 -1.265311907223160698e-02 3.008167718270536931e-02 7.424404184569781684e-01 3.577238859172093277e-01 7.424404184569781684e-01 3.577238859172093277e-01 -1.265311907223160698e-02 3.008167718270536931e-02
1.301685000000000000e+08 1.429073315975279597e-02 3.800658556760063561e-02 8.107380949474306542e-01 1.369790333416463779e-01 8.107380949474306542e-01 1.369790333416463779e-01 1.429073315975279597e-02 3.800658556760063561e-02
1.331480000000000000e+08 4.020837074463302213e-02 2.959345737605074272e-02 8.147622997042460735e-01 -9.352791524433345938e-02 8.147622997042460735e-01 -9.352791524433345938e-02 4.020837074463302213e-02 2.959345737605074272e-02
1.361275000000000000e+08 5.796159083213561769e-02 9.551391881807461473e-03 7.552738198260505742e-01 -3.152767955844875680e-01 7.552738198260505742e-01 -3.152767955844875680e-01 5.796159083213561769e-02 9.551391881807461473e-03
1.391070000000000000e+08 5.890182161537422384e-02 -1.714842643046588996e-02 6.377719786826662185e-01 -5.113368168845718875e-01 6.377719786826662185e-01 -5.113368168845718875e-01 5.890182161537422384e-02 -1.714842643046588996e-02
1.420865000000000000e+08 4.565428095377647294e-02 -3.930014008055687097e-02 4.690863314338858947e-01 -6.679105345698143070e-01 4.690863314338858947e-01 -6.679105345698143070e-01 4.565428095377647294e-02 -3.930014008055687097e-02
1.450660000000000000e+08 1.945360627000518663e-02 -4.959869152345225407e-02 2.645673085734190910e-01 -7.685331546658413782e-01 2.645673085734190910e-01 -7.685331546658413782e-01 1.945360627000518663e-02 -4.959869152345225407e-02
1.480455000000000000e+08 -1.880720656587752272e-03 -4.258777945001061133e-02 4.131136092618728495e-02 -8.138913004300213361e-01 4.131136092618728495e-02 -8.138913004300213361e-01 -1.880720656587752272e-03 -4.258777945001061133e-02
1.510250000000000000e+08 -1.866262709969947198e-02 -2.563700779953692263e-02 -1.877624068087943021e-01 -7.916683337989283142e-01 -1.877624068087943021e-01 -7.916683337989283142e-01 -1.866262709969947198e-02 -2.563700779953692263e-02
1.540045000000000000e+08 -2.279846794073748378e-02 1.377873605452841399e-04 -3.997172998475084227e-01 -7.060734312599078466e-01 -3.997172998475084227e-01 -7.060734312599078466e-01 -2.279846794073748378e-02 1.377873605452841399e-04
1.569840000000000000e+08 -1.215020413800628821e-02 2.299229966082767460e-02 -5.790472761127376522e-01 -5.658961059667441118e-01 -5.790472761127376522e-01 -5.658961059667441118e-01 -1.215020413800628821e-02 2.299229966082767460e-02
1.599635000000000000e+08 9.919744870158151567e-03 3.552723445544206382e-02 -7.115614159794504401e-01 -3.822434978459439137e-01 -7.115614159794504401e-01 -3.822434978459439137e-01 9.919744870158151567e-03 3.552723445544206382e-02
1.629430000000000000e+08 3.554238744038000497e-02 3.380946337818092895e-02 -7.869910885653036425e-01 -1.698438637619563707e-01 -7.869910885653036425e-01 -1.698438637619563707e-01 3.554238744038000497e-02 3.380946337818092895e-02
1.659225000000000000e+08 5.615832944634726459e-02 1.797059681450941318e-02 -8.022717855833478851e-01 5.472279449014312569e-02 -8.022717855833478851e-01 5.472279449014312569e-02 5.615832944634726459e-02 1.797059681450941318e-02
1.689020000000000000e+08 6.469999041129301243e-02 -6.108258044004532747e-03 -7.543097702593406506e-01 2.742490160107027286e-01 -7.543097702593406506e-01 2.742490160107027286e-01 6.469999041129301243e-02 -6.108258044004532747e-03
1.718815000000000000e+08 5.865940007900413700e-02 -2.958118775240613924e-02 -6.471095223102742988e-01 4.721365143996523739e-01 -6.471095223102742988e-01 4.721365143996523739e-01 5.865940007900413700e-02 -2.958118775240613924e-02
1.748610000000000000e+08 4.061512704614209796e-02 -4.529738069476137857e-02 -4.895265741192970088e-01 6.322102878200126508e-01 -4.895265741192970088e-01 6.322102878200126508e-01 4.061512704614209796e-02 -4.529738069476137857e-02
1.778405000000000000e+08 1.681186180327201921e-02 -4.744388321768333583e-02 -2.938645912157674678e-01 7.414072338351012093e-01 -2.938645912157674678e-01 7.414072338351012093e-01 1.681186180327201921e-02 -4.744388321768333583e-02
1.808200000000000000e+08 -6.495083655275737337e-04 -3.528138156299949479e-02 -7.924543876761114269e-02 7.914563502096899628e-01 -7.924543876761114269e-02 7.914563502096899628e-01 -6.495083655275737337e-04 -3.528138156299949479e-02
1.837995000000000000e+08 -1.077629127430365999e-02 -2.007421528853815113e-02 1.446169374243817529e-01 7.830679200720048749e-01 1.446169374243817529e-01 7.830679200720048749e-01 -1.077629127430365999e-02 -2.007421528853815113e-02
1.867790000000000000e+08 -9.357882993507486008e-03 4.588949640842954160e-04 3.565103488069456539e-01 7.103092749323962618e-01 3.565103488069456539e-01 7.103092749323962618e-01 -9.357882993507486008e-03 4.588949640842954160e-04
1.897585000000000000e+08 3.334788798055972423e-03 1.692115328922415285e-02 5.385015462767389627e-01 5.809610291731885923e-01 5.385015462767389627e-01 5.809610291731885923e-01 3.334788798055972423e-03 1.692115328922415285e-02
1.927380000000000000e+08 2.344254323407649054e-02 2.270565134569210372e-02 6.777595550234882804e-01 4.073883762373545214e-01 6.777595550234882804e-01 4.073883762373545214e-01 2.344254323407649054e-02 2.270565134569210372e-02
1.957175000000000000e+08 4.261112126464382949e-02 1.612661160194836865e-02 7.618828955743134346e-01 2.024319974526626598e-01 7.618828955743134346e-01 2.024319974526626598e-01 4.261112126464382949e-02 1.612661160194836865e-02
1.986970000000000000e+08 5.284454581139656770e-02 -1.071576516360107315e-03 7.867350704645517112e-01 -1.681548871552755731e-02 7.867350704645517112e-01 -1.681548871552755731e-02 5.284454581139656770e-02 -1.071576516360107315e-03
2.016765000000000000e+08 5.416862836685262111e-02 -1.941620233525421027e-02 7.504586438459541764e-01 -2.334965693411865939e-01 7.504586438459541764e-01 -2.334965693411865939e-01 5.416862836685262111e-02 -1.941620233525421027e-02
2.046560000000000000e+08 4.435619313314804329e-02 -3.423118614741145482e-02 6.553612195562086296e-01 -4.319020303125100657e-01 6.553612195562086296e-01 -4.319020303125100657e-01 4.435619313314804329e-02 -3.423118614741145482e-02
2.076355000000000000e+08 2.716388751285771924e-02 -3.968977821303729114e-02 5.085125868720978826e-01 -5.953681963817244460e-01 5.085125868720978826e-01 -5.953681963817244460e-01 2.716388751285771924e-02 -3.968977821303729114e-02
2.106150000000000000e+08 1.120883525745166621e-02 -3.262533474333164513e-02 3.238648930034642159e-01 -7.123468498142163652e-01 3.238648930034642159e-01 -7.123468498142163652e-01 1.120883525745166621e-02 -3.262533474333164513e-02
2.135945000000000000e+08 2.453605077763846773e-03 -2.047569840531495572e-02 1.129784596887556808e-01 -7.735336869244753277e-01 1.129784596887556808e-01 -7.735336869244753277e-01 2.453605077763846773e-03 -2.047569840531495572e-02
2.165740000000000000e+08 5.271795458298257978e-03 -5.442410438773733448e-03 -1.067768296096359010e-01 -7.741496464123295285e-01 -1.067768296096359010e-01 -7.741496464123295285e-01 5.271795458298257978e-03 -5.442410438773733448e-03
2.195535000000000000e+08 1.546329588514854837e-02 5.187397074087324658e-03 -3.166344931639666349e-01 -7.123604885516331420e-01 -3.166344931639666349e-01 -7.123604885516331420e-01 1.546329588514854837e-02 5.187397074087324658e-03
2.225330000000000000e+08 3.132460621584978733e-02 8.187654887379047786e-03 -5.019979988037013285e-01 -5.958306063662149876e-01 -5.019979988037013285e-01 -5.958306063662149876e-01 3.132460621584978733e-02 8.187654887379047786e-03
2.255125000000000000e+08 4.640268686718414248e-02 7.740305514055845909e-04 -6.460331203416321832e-01 -4.325691556005305527e-01 -6.460331203416321832e-01 -4.325691556005305527e-01 4.640268686718414248e-02 7.740305514055845909e-04
2.284920000000000000e+08 5.576398001365484580e-02 -1.528284238328532323e-02 -7.401406569887883924e-01 -2.372214970527801448e-01 -7.401406569887883924e-01 -2.372214970527801448e-01 5.576398001365484580e-02 -1.528284238328532323e-02
2.314715000000000000e+08 5.294002673831080252e-02 -3.231442983820609349e-02 -7.745252355346678996e-01 -2.238914096882640634e-02 -7.745252355346678996e-01 -2.238914096882640634e-02 5.294002673831080252e-02 -3.231442983820609349e-02
2.344510000000000000e+08 4.418372560573492064e-02 -4.660135284830450864e-02 -7.486732206243431609e-01 1.925459423868915998e-01 -7.486732206243431609e-01 1.925459423868915998e-01 4.418372560573492064e-02 -4.660135284830450864e-02
2.374305000000000000e+08 2.558232725569739227e-02 -5.462924345933166392e-02 -6.657916469329488995e-01 3.917708297394786876e-01 -6.657916469329488995e-01 3.917708297394786876e-01 2.558232725569739227e-02 -5.462924345933166392e-02
2.404100000000000000e+08 1.050665389464187569e-02 -5.085678312301930570e-02 -5.295134667103835735e-01 5.607031200228056456e-01 -5.295134667103835735e-01 5.607031200228056456e-01 1.050665389464187569e-02 -5.085678312301930570e-02
2.433895000000000000e+08 -7.926166685776162317e-04 -4.065578757380319125e-02 -3.521548312461400543e-01 6.830751663693734876e-01 -3.521548312461400543e-01 6.830751663693734876e-01 -7.926166685776162317e-04 -4.065578757380319125e-02
2.463690000000000000e+08 -5.516509278417903485e-03 -2.579097837121571354e-02 -1.487007576573652623e-01 7.533292323768312482e-01 -1.487007576573652623e-01 7.533292323768312482e-01 -5.516509278417903485e-03 -2.579097837121571354e-02
2.493485000000000000e+08 -1.887875642854922953e-03 -1.429127051548284566e-02 6.611464733699826124e-02 7.626131632289501194e-01 6.611464733699826124e-02 7.626131632289501194e-01 -1.887875642854922953e-03 -1.429127051548284566e-02
2.523280000000000000e+08 6.389629141546974631e-03 -6.763377004954776277e-03 2.745086926767667523e-01 7.129854966217192835e-01 2.745086926767667523e-01 7.129854966217192835e-01 6.389629141546974631e-03 -6.763377004954776277e-03
2.553075000000000000e+08 1.739763540684177712e-02 -7.077620939193653149e-03 4.614418929656729507e-01 6.074809537183768482e-01 4.614418929656729507e-01 6.074809537183768482e-01 1.739763540684177712e-02 -7.077620939193653149e-03
2.582870000000000000e+08 2.486507672407362035e-02 -1.337821163314264518e-02 6.107656845955903302e-01 4.566401032317776165e-01 6.107656845955903302e-01 4.566401032317776165e-01 2.486507672407362035e-02 -1.337821163314264518e-02
