# Hz S RI R 50
2050000 0.017502312453924786 0.028604178907110124 0.9511988107682391 -0.20759489441964082 0 0 0 0
5029500 0.05205892929628531 0.03639151789777806 0.8361927111682521 -0.46873236279534797 0 0 0 0
8009000 0.0778600766111479 0.02340470401244014 0.660864159613999 -0.6793715002158937 0 0 0 0
10988500 0.09145846120120084 -0.0026847346947206636 0.43870912304980836 -0.8313549018561345 0 0 0 0
13968000 0.08805013666084881 -0.03053854735870112 0.18563062005957687 -0.9155653114471699 0 0 0 0
16947500 0.07055981434209477 -0.05223212609171069 -0.07942089349614317 -0.9258652911149998 0 0 0 0
19927000 0.04458593851618828 -0.06162941500191387 -0.3353028348340895 -0.8623747054800807 0 0 0 0
22906500 0.01841881657482709 -0.05633129586162297 -0.5620176336048786 -0.7295799801753308 0 0 0 0
25886000 0.0008701151315151923 -0.038298297038695174 -0.7412110704446829 -0.5390953278435514 0 0 0 0
28865500 -0.0034203395607916164 -0.014972648986355386 -0.8586419886099025 -0.3072740497147127 0 0 0 0
31845000 0.0052008966513740615 0.005859086585399944 -0.9056881119267086 -0.05377046185548614 0 0 0 0
34824500 0.0244755354438638 0.016424535416958153 -0.8798633312607632 0.20125307102324383 0 0 0 0
37804000 0.04563912208112305 0.014177022145073714 -0.7849846291596198 0.4371999635810804 0 0 0 0
40783500 0.0615469179302073 -0.0011247091945626897 -0.6292903717307061 0.6357104287710503 0 0 0 0
43763000 0.06571716016195864 -0.022990180340827726 -0.4248625041077622 0.7831979647184032 0 0 0 0
46742500 0.05610857346326537 -0.04358325642433637 -0.188765709360123 0.8672951273781178 0 0 0 0
49722000 0.036226540194194544 -0.05667516863828732 0.06038901961432715 0.8828242025196612 0 0 0 0
52701500 0.012280422362892549 -0.05647981190013969 0.30441656934509126 0.8283774464275361 0 0 0 0
55681000 -0.00826741811433384 -0.043243617782612306 0.5213588469692411 0.7086561898656378 0 0 0 0
58660500 -0.017274598899179823 -0.020987022494432406 0.6970704700271559 0.5327294144193905 0 0 0 0
61640000 -0.013107811078482577 0.002499573676420244 0.8152073080253396 0.3158010153571519 0 0 0 0
64619500 0.0036816839532918906 0.018808938384206053 0.8673437640456438 0.07522043076801073 0 0 0 0
67599000 0.02594622384436735 0.022802253731938275 0.8509622604451563 -0.1685056282764064 0 0 0 0
70578500 0.04729211136131621 0.013891482887474493 0.7673945663870555 -0.3976905550760066 0 0 0 0
73558000 0.05833405902269333 -0.0061779885710754375 0.6255476647263035 -0.5940741676775617 0 0 0 0
76537500 0.05570740817476316 -0.029102520588140415 0.43455809193983075 -0.7429994547231387 0 0 0 0
79517000 0.04188212369223942 -0.04646291632962547 0.21061535691677916 -0.83295119254681 0 0 0 0
82496500 0.01924088572679157 -0.052742016315367624 -0.029252279673332895 -0.8566106423046361 0 0 0 0
85476000 -0.003338929387981687 -0.04476268620328957 -0.2658848636185276 -0.8124074439026213 0 0 0 0
88455500 -0.017569588807441753 -0.025840418836039974 -0.4807598791704631 -0.7036717249009615 0 0 0 0
91435000 -0.017859501845065653 -0.0019033774799166422 -0.6563159443883764 -0.5399612224860685 0 0 0 0
94414500 -0.005271699246270894 0.018775300202747685 -0.7781821760517234 -0.334099788172991 0 0 0 0
97394000 0.01907223059123788 0.028714760616532515 -0.8382333585911309 -0.10427092534687095 0 0 0 0
100373500 0.04351098813399501 0.022677894353389617 -0.8320902286199822 0.1327053680918852 0 0 0 0
103353000 0.06098451170861792 0.004346916665265111 -0.7607674208683056 0.3569312488140113 0 0 0 0
106332500 0.06512492674236098 -0.02276686938503073 -0.6293466567859527 0.5527305627063709 0 0 0 0
109312000 0.054330666341613404 -0.04855771976421273 -0.4493277824443409 0.703839804463963 0 0 0 0
112291500 0.030118770884411613 -0.06345751285337127 -0.23630369098451562 0.799600422349699 0 0 0 0
115271000 0.0007402470588901808 -0.06335713789777529 -0.004364961896896606 0.8321674415774992 0 0 0 0
118250500 -0.023958422206140795 -0.04698991380111196 0.22667777799141534 0.7990171567716098 0 0 0 0
121230000 -0.035510400900872305 -0.02025546419501991 0.4389223664748679 0.7027416552391444 0 0 0 0
124209500 -0.031042688672309294 0.009014163835392731 0.6157542580618673 0.5512986104798717 0 0 0 0
127189000 -0.012653119072231607 0.03008167718270537 0.7424404184569782 0.3577238859172093 0 0 0 0
130168500 0.014290733159752796 0.038006585567600636 0.8107380949474307 0.13697903334164638 0 0 0 0
133148000 0.04020837074463302 0.029593457376050743 0.8147622997042461 -0.09352791524433346 0 0 0 0
136127500 0.05796159083213562 0.009551391881807461 0.7552738198260506 -0.31527679558448757 0 0 0 0
139107000 0.058901821615374224 -0.01714842643046589 0.6377719786826662 -0.5113368168845719 0 0 0 0
142086500 0.04565428095377647 -0.03930014008055687 0.4690863314338859 -0.6679105345698143 0 0 0 0
145066000 0.019453606270005187 -0.049598691523452254 0.2645673085734191 -0.7685331546658414 0 0 0 0
148045500 -0.0018807206565877523 -0.04258777945001061 0.041311360926187285 -0.8138913004300213 0 0 0 0
151025000 -0.018662627099699472 -0.025637007799536923 -0.1877624068087943 -0.7916683337989283 0 0 0 0
154004500 -0.022798467940737484 0.00013778736054528414 -0.3997172998475084 -0.7060734312599078 0 0 0 0
156984000 -0.012150204138006288 0.022992299660827675 -0.5790472761127377 -0.5658961059667441 0 0 0 0
159963500 0.009919744870158152 0.035527234455442064 -0.7115614159794504 -0.3822434978459439 0 0 0 0
162943000 0.035542387440380005 0.03380946337818093 -0.7869910885653036 -0.16984386376195637 0 0 0 0
165922500 0.056158329446347265 0.017970596814509413 -0.8022717855833479 0.054722794490143126 0 0 0 0
168902000 0.06469999041129301 -0.006108258044004533 -0.7543097702593407 0.27424901601070273 0 0 0 0
171881500 0.05865940007900414 -0.02958118775240614 -0.6471095223102743 0.4721365143996524 0 0 0 0
174861000 0.0406151270461421 -0.04529738069476138 -0.489526574119297 0.6322102878200127 0 0 0 0
177840500 0.01681186180327202 -0.047443883217683336 -0.29386459121576747 0.7414072338351012 0 0 0 0
180820000 -0.0006495083655275737 -0.035281381562999495 -0.07924543876761114 0.79145635020969 0 0 0 0
183799500 -0.01077629127430366 -0.02007421528853815 0.14461693742438175 0.7830679200720049 0 0 0 0
186779000 -0.009357882993507486 0.0004588949640842954 0.35651034880694565 0.7103092749323963 0 0 0 0
189758500 0.0033347887980559724 0.016921153289224153 0.538501546276739 0.5809610291731886 0 0 0 0
192738000 0.02344254323407649 0.022705651345692104 0.6777595550234883 0.4073883762373545 0 0 0 0
195717500 0.04261112126464383 0.01612661160194837 0.7618828955743134 0.20243199745266266 0 0 0 0
198697000 0.05284454581139657 -0.0010715765163601073 0.7867350704645517 -0.016815488715527557 0 0 0 0
201676500 0.05416862836685262 -0.01941620233525421 0.7504586438459542 -0.2334965693411866 0 0 0 0
204656000 0.04435619313314804 -0.034231186147411455 0.6553612195562086 -0.43190203031251007 0 0 0 0
207635500 0.02716388751285772 -0.03968977821303729 0.5085125868720979 -0.5953681963817244 0 0 0 0
210615000 0.011208835257451666 -0.032625334743331645 0.3238648930034642 -0.7123468498142164 0 0 0 0
213594500 0.0024536050777638468 -0.020475698405314956 0.11297845968875568 -0.7735336869244753 0 0 0 0
216574000 0.005271795458298258 -0.0054424104387737334 -0.1067768296096359 -0.7741496464123295 0 0 0 0
219553500 0.015463295885148548 0.005187397074087325 -0.31663449316396663 -0.7123604885516331 0 0 0 0
222533000 0.03132460621584979 0.008187654887379048 -0.5019979988037013 -0.595830606366215 0 0 0 0
225512500 0.04640268686718414 0.0007740305514055846 -0.6460331203416322 -0.43256915560053055 0 0 0 0
228492000 0.055763980013654846 -0.015282842383285323 -0.7401406569887884 -0.23722149705278014 0 0 0 0
231471500 0.0529400267383108 -0.032314429838206093 -0.7745252355346679 -0.022389140968826406 0 0 0 0
234451000 0.04418372560573492 -0.04660135284830451 -0.7486732206243432 0.1925459423868916 0 0 0 0
237430500 0.025582327255697392 -0.054629243459331664 -0.6657916469329489 0.3917708297394787 0 0 0 0
240410000 0.010506653894641876 -0.050856783123019306 -0.5295134667103836 0.5607031200228056 0 0 0 0
243389500 -0.0007926166685776162 -0.04065578757380319 -0.35215483124614005 0.6830751663693735 0 0 0 0
246369000 -0.0055165092784179035 -0.025790978371215714 -0.14870075765736526 0.7533292323768312 0 0 0 0
249348500 -0.001887875642854923 -0.014291270515482846 0.06611464733699826 0.7626131632289501 0 0 0 0
252328000 0.006389629141546975 -0.006763377004954776 0.27450869267676675 0.7129854966217193 0 0 0 0
255307500 0.017397635406841777 -0.007077620939193653 0.46144189296567295 0.6074809537183768 0 0 0 0
258287000 0.02486507672407362 -0.013378211633142645 0.6107656845955903 0.4566401032317776 0 0 0 0
261266500 0.023461851654170786 -0.024291916000089 0.7116121575366071 0.26891306881084986 0 0 0 0
264246000 0.018545792617889918 -0.029438347859997376 0.7581352630485585 0.060001297490507324 0 0 0 0
267225500 0.010233554866460288 -0.026679118491663985 0.7444116115854567 -0.15149904650062754 0 0 0 0
270205000 0.004482810826110216 -0.02211628834339419 0.6714259009624192 -0.35144681167745356 0 0 0 0
273184500 0.004941053370194433 -0.013284733603057316 0.5473753279288741 -0.5235752461722727 0 0 0 0
276164000 0.00900731880714183 -0.004559598541403107 0.3784342769142799 -0.6530528145129556 0 0 0 0
279143500 0.017223939120101416 -0.004281591120497495 0.1828165958933323 -0.7322541662657328 0 0 0 0
282123000 0.02831471132921624 -0.0077646619670958174 -0.02713019649908364 -0.7515244424641332 0 0 0 0
285102500 0.034077809457997744 -0.01711854403696637 -0.23470757692502336 -0.7135005432719796 0 0 0 0
288082000 0.033050106326966255 -0.029992925061831637 -0.4232791337854363 -0.6212967582385276 0 0 0 0
291061500 0.024207064768293873 -0.03904108449635076 -0.5778913344666794 -0.4782847471297455 0 0 0 0
294041000 0.012140568827111708 -0.03963224228356827 -0.6874632880114059 -0.3001218072517831 0 0 0 0
297020500 -0.0008901777961280467 -0.03560763149755104 -0.7410367185008984 -0.09748487936982352 0 0 0 0
300000000 0.014844592608965505 -0.035048007099979274 -0.7390206745802068 0.11353254542044382 0 0 0 0
