# Hz S RI R 50
2050000 0.029244898350730533 0.020797103311393526
5029500 0.055120267744589134 0.024245494383049356
8009000 0.07272595514296279 0.011382814012782825
10988500 0.07925665202134204 -0.0077154053257656036
13968000 0.07559870811710606 -0.027123224817231954
16947500 0.06254665166136787 -0.041594267732449286
19927000 0.04517816605625963 -0.0478924403860435
22906500 0.028049502624312345 -0.04480971019246164
25886000 0.015530184856230022 -0.035074261139100574
28865500 0.010410329397669102 -0.02143678614330452
31845000 0.013398353566576236 -0.008126843025715627
34824500 0.022289859967567317 1.115966107196506e-05
37804000 0.034017714576780586 0.001049757947268702
40783500 0.04404538227379496 -0.004764227284040579
43763000 0.04861614657546276 -0.015790749745243235
46742500 0.04645150421508724 -0.027858703508599043
49722000 0.03738532330372581 -0.03698535532276154
52701500 0.023796670931385853 -0.04090516374145332
55681000 0.011819591607379396 -0.03658844934183538
58660500 0.003115599100139038 -0.02731276322695953
61640000 0.00035339526809737346 -0.01475098397200272
64619500 0.004775592667414346 -0.0031190493070586017
67599000 0.013809767206913034 0.004213278424915239
70578500 0.02542964786060896 0.005099323947158753
73558000 0.035350785946390954 -0.00010740037346999962
76537500 0.040208661068518524 -0.00979016643517548
79517000 0.03915790597004057 -0.020580117758165546
82496500 0.0321327152564243 -0.02936373395014348
85476000 0.02188210515571856 -0.032312629359523795
88455500 0.01134529971634082 -0.029046630698533107
91435000 0.004559278109518461 -0.021056234391051084
94414500 0.0038147837010585996 -0.0104959344731944
97394000 0.009246701015735615 -0.001269977832749742
100373500 0.018309878977906143 0.0023663157858411278
103353000 0.02828864622164169 -5.800952496061464e-06
106332500 0.03491890844688078 -0.005211369094619106
109312000 0.03947779102724425 -0.01690867680184083
112291500 0.03489758295155699 -0.02887612921292835
115271000 0.0240676658912257 -0.037476593448279374
118250500 0.010161169822854227 -0.038521158403121265
121230000 -0.0030669498143651055 -0.03278011256911611
124209500 -0.010893179831963886 -0.020461758821767217
127189000 -0.012135731666931476 -0.005332958970217411
130168500 -0.005231119497880497 0.007878907124175152
133148000 0.007062972848116173 0.015380123632211543
136127500 0.01949858226514398 0.01660894830861357
139107000 0.03262855493797039 0.011726142061692627
142086500 0.04024810749664109 -1.2872918919284974e-05
145066000 0.039894068402513326 -0.013436394909761508
148045500 0.03320386533494502 -0.024507002120379665
151025000 0.023540222341516443 -0.031085308271268316
154004500 0.007247841042199147 -0.02972299222512194
156984000 -0.0029259980202770855 -0.0181779931198699
159963500 -0.005257683945834947 -0.004294357225094908
162943000 3.182375206977816e-05 0.009612583525055896
165922500 0.012732392231233876 0.018400864533529033
168902000 0.027641704575602014 0.018742315678514938
171881500 0.04096436691003484 0.012493613173084837
174861000 0.04970567577749031 -0.0005752164979257148
177840500 0.049606762930404794 -0.016228920695997427
180820000 0.04144128416397759 -0.02902074925741255
183799500 0.028048613961874372 -0.03511651492096888
186779000 0.013987880767251493 -0.03373457430157596
189758500 0.003602066143082919 -0.024412640255409776
192738000 7.626942118457529e-05 -0.011298729000594412
195717500 0.003923827462646236 0.0022269780643551793
198697000 0.014451440607814588 0.011299816188649088
201676500 0.028412820775690427 0.01309097814264914
204656000 0.041846532912779226 0.007483336719855878
207635500 0.0497716993045767 -0.0037437616171073105
210615000 0.05092440953088678 -0.017481226383332292
213594500 0.045454042436055504 -0.03005259051025
216574000 0.034876059783324684 -0.03815472418657534
219553500 0.021843103596836555 -0.03856179742034883
222533000 0.011774209891760068 -0.03252320277013688
225512500 0.007335302527324902 -0.022115404690470294
228492000 0.009833385744125378 -0.011741078366756533
231471500 0.01790160053068949 -0.004800982769335622
234451000 0.029737023683433252 -0.004270167126247095
237430500 0.03963483850570798 -0.010880067311892542
240410000 0.044393202566622145 -0.02314670447581775
243389500 0.04184888182515016 -0.0373270945393146
246369000 0.031430590017482704 -0.047482467498829214
249348500 0.016135525512230853 -0.051649820634733154
252328000 0.0011425385721152788 -0.04800803211758597
255307500 -0.011792314471400845 -0.03720563137431257
258287000 -0.01574908980473855 -0.02128992516882122
261266500 -0.012009866570633718 -0.005396133109941446
264246000 -0.00020694069840823114 0.005819212906457684
267225500 0.015740746751424683 0.010185645447836053
270205000 0.03158400442220225 0.0055077268324927415
273184500 0.04102153338500298 -0.005816577075199399
276164000 0.043999249222476264 -0.020771784547370813
279143500 0.037739195944616784 -0.0361142849026614
282123000 0.025865807460401256 -0.04426035141894909
285102500 0.010507597147748064 -0.045863069011521984
288082000 -0.00373363100028337 -0.039401216813597824
291061500 -0.011066115484616888 -0.024871405400148896
294041000 -0.009561614409091963 -0.01015147687104366
297020500 -0.00040753217583643114 0.001100738886057187
300000000 0.035633755031423874 -0.0023816588512636334
