# Hz S RI R 50
2050000 0.926578711655775 -0.36663330648149617
5029500 0.5852578844244655 -0.7938039467595589
8009000 0.0560960383138977 -0.960218673837468
10988500 -0.47479642749062817 -0.7953992753015768
13968000 -0.8079211275306761 -0.3625933185808795
16947500 -0.8327587811301955 0.16411071610239303
19927000 -0.5721789777464249 0.5920807179935913
22906500 -0.14400321023911086 0.7995033076634569
25886000 0.30835133169450113 0.7511691724189893
28865500 0.6604830881063154 0.4851453365354737
31845000 0.8250909372458951 0.08230181960272824
34824500 0.7601638722769999 -0.3498918299047898
37804000 0.4743831008655492 -0.6906004220993602
40783500 0.04254200415692848 -0.8292817056882521
43763000 -0.40158016143133407 -0.7081444119422684
46742500 -0.7057170555583554 -0.35990715776844967
49722000 -0.7640795411665383 0.09368180337662516
52701500 -0.5681765277328579 0.49422436355445815
55681000 -0.19926276621942346 0.7176683047441471
58660500 0.22160027320819808 0.7122255708409638
61640000 0.5693702349766835 0.49294101290492065
64619500 0.7517268362222296 0.1285585352715533
67599000 0.7179026361986293 -0.27832715759994797
70578500 0.4729473038460178 -0.611809821490299
73558000 0.08017665719819016 -0.7643008921250155
76537500 -0.3371146060278662 -0.6769299591297587
79517000 -0.6367871137965662 -0.3738292671133115
82496500 -0.7182190207926994 0.04140074192786285
85476000 -0.5621519134238928 0.42516441456274195
88455500 -0.2339117707300809 0.6576504175213249
91435000 0.15734083845891045 0.6810967685101482
94414500 0.4972596439960166 0.5008196586173888
97394000 0.6939279324474151 0.17361569498753324
100373500 0.6923396412112512 -0.20958756056674444
103353000 0.48978319194340575 -0.5361337276119051
106332500 0.13926496438692243 -0.7137884494511709
109312000 -0.2569327904251082 -0.670001936118632
112291500 -0.5657426432732904 -0.4153719438561884
115271000 -0.6832667113089804 -0.037208453801278234
118250500 -0.5792708168629712 0.33705713431966644
121230000 -0.2978298577898561 0.590387271358519
124209500 0.06657554001074287 0.6565823124309609
127189000 0.40726131470916443 0.5265955893619347
130168500 0.6302517259424828 0.23965388393655412
133148000 0.6696312726019171 -0.12421952576763351
136127500 0.5137978226165388 -0.45615110803769915
139107000 0.19360443241295552 -0.6598120471191251
142086500 -0.1902569661136601 -0.6523138205754158
145066000 -0.5057765695523181 -0.43189835840975055
148045500 -0.6448377444146836 -0.07764549021846612
151025000 -0.5676731500770503 0.285500614102765
154004500 -0.3138749670332968 0.5392358669331452
156984000 0.014185448567825823 0.6279452381973272
159963500 0.3473428587435845 0.5331618436503205
162943000 0.580838398634416 0.28165735696994715
165922500 0.6521751908852794 -0.05462642472930514
168902000 0.5358542174743454 -0.38564026118805445
171881500 0.25552077605924683 -0.6069408805902337
174861000 -0.10613663372165104 -0.6416434232359544
177840500 -0.4299912310746965 -0.46961430020974276
180820000 -0.6026009016080813 -0.1469662902519437
183799500 -0.5689025920578799 0.21058868164381114
186779000 -0.35363642552641555 0.4844425362718874
189758500 -0.034626793578978715 0.5997404003778691
192738000 0.29106335557082974 0.5347803931151169
195717500 0.5343888488320496 0.31462080202635123
198697000 0.6315915115736354 -0.0008560616320431059
201676500 0.5508237815554607 -0.3260521558465047
204656000 0.30505933321462453 -0.5639487896420604
207635500 -0.03670523031252576 -0.6320199951840834
210615000 -0.36510063189869313 -0.4977757111798896
213594500 -0.5624506453980185 -0.20428359794348108
216574000 -0.5637192620845543 0.14319044545472287
219553500 -0.379158043372786 0.42772317860369347
222533000 -0.07992174275929928 0.5665496770268424
225512500 0.24063199947665465 0.528785708176334
228492000 0.4930117851698168 0.33326812340423956
231471500 0.6096650442551566 0.03620832113492137
234451000 0.5559869771637307 -0.28213030767419495
237430500 0.33938652721342794 -0.5288946277090104
240410000 0.019086984527153367 -0.6243851973018595
243389500 -0.3047054974804568 -0.5303010599973288
246369000 -0.5244999478914725 -0.27419336495673746
249348500 -0.5679591868534664 0.05558976964755218
252328000 -0.4317737929924877 0.35139969276738925
255307500 -0.16550339898891844 0.5239745538061074
258287000 0.1465478736141408 0.5341447031465332
261266500 0.41615850026906487 0.38158164414439344
264246000 0.5687363486822621 0.11182073313966999
267225500 0.5581486516847589 -0.2018097370180675
270205000 0.3786150207537086 -0.46768874388586984
273184500 0.07915117560254985 -0.5947083576622247
276164000 -0.24297698891814756 -0.5357820800286537
279143500 -0.4796291085794466 -0.311234711048465
282123000 -0.5504607338452956 0.0006613719623274145
285102500 -0.44638206601982366 0.2960092337147504
288082000 -0.20798352126750216 0.4877550519582659
291061500 0.09161454902000885 0.5249720108174661
294041000 0.3661110477517682 0.40305426650747295
297020500 0.5360462341532599 0.15694094836909017
300000000 0.5867202587384222 -0.13862269770266894
