# Hz S RI R 50
2050000 -0.8003441794210215 0.4210613168620736
5029500 -0.38296537374592227 0.7762234043856515
8009000 0.10280889162543967 0.8487025091217005
10988500 0.5343905388344868 0.6730390224882982
13968000 0.8127400660963509 0.3122632886509324
16947500 0.8701485301711347 -0.1421464215534488
19927000 0.6800968289008235 -0.5684265513237344
22906500 0.2830172611623804 -0.8347247310200538
25886000 -0.20623389764384664 -0.8415955265263652
28865500 -0.6203865949420349 -0.570033155438404
31845000 -0.8069778227571085 -0.11526880299606874
34824500 -0.707977883977594 0.35411874612031774
37804000 -0.378397807969566 0.679597939741124
40783500 0.05715235749119171 0.7718901168847927
43763000 0.4639175504047369 0.6256397221014424
46742500 0.7298563123712015 0.2960371289881071
49722000 0.787426067867269 -0.12209199566016185
52701500 0.6168590116797364 -0.5118801805869961
55681000 0.2613956331947206 -0.7556783384641818
58660500 -0.1777057432059036 -0.7696993335989148
61640000 -0.5547280296288782 -0.5372583372449519
64619500 -0.7394814937819262 -0.13755331635952775
67599000 -0.6740191281893366 0.29035064299745444
70578500 -0.39367220212022297 0.6055507890722399
73558000 0.0003957608495814035 0.7197637010004958
76537500 0.3858930926732636 0.6138515719443244
79517000 0.6570996710768228 0.3269802917131709
82496500 0.7402481196146262 -0.05960953782715566
85476000 0.6090047648859026 -0.43627280082812886
88455500 0.29240527368698077 -0.6892125244430226
91435000 -0.11582427094721016 -0.7312993041571608
94414500 -0.4831648733871478 -0.5411909076283252
97394000 -0.6832000572254078 -0.1802195805339582
100373500 -0.6513483942728965 0.22469950859480722
103353000 -0.4093657174606153 0.5394590582942057
106332500 -0.05173856991154202 0.6711081499650093
109312000 0.3212988142165723 0.5998639771329806
112291500 0.5972541736022323 0.34457624800000447
115271000 0.6994455759961242 -0.017737181431983134
118250500 0.5947233716015892 -0.38296888402667306
121230000 0.30721674748068084 -0.6391876577225301
124209500 -0.0786218457643697 -0.6983940436602775
127189000 -0.43509572478911984 -0.5354135827587283
130168500 -0.6401908373810066 -0.20524311450931587
133148000 -0.6338356097766277 0.1721570575127935
136127500 -0.43136744945995137 0.48514982172521626
139107000 -0.10153465150804034 0.6380587812094168
142086500 0.25212228671735853 0.5988769939374268
145066000 0.5327769390719419 0.3849305536091851
148045500 0.6637442678855417 0.05638577672728579
151025000 0.6053222433482811 -0.2979840514428976
154004500 0.36111167174425407 -0.5712917332460935
156984000 0.001051616261985457 -0.6701367110133185
159963500 -0.35715384656565424 -0.5526734977258653
162943000 -0.5878081732586881 -0.25651785588906995
165922500 -0.6163075143207459 0.11153266836748914
168902000 -0.44536378213892186 0.42675483727757435
171881500 -0.14189735286627433 0.5988667241518242
174861000 0.1987061412406766 0.5881840757759238
177840500 0.4821961425737654 0.40635810937077
180820000 0.6335819811028202 0.1052598768939038
183799500 0.6062571111710049 -0.23511179938548138
186779000 0.4007306230612847 -0.5163239404424081
189758500 0.0694366601234846 -0.6444214391734819
192738000 -0.2823044819398014 -0.5680961898956045
195717500 -0.5326816724363305 -0.3086751639155118
198697000 -0.5969335112695462 0.04075113889630897
201676500 -0.46349596511615854 0.3591083179084708
204656000 -0.187778957321026 0.5518632364840375
207635500 0.13672589077993944 0.5714060185361262
210615000 0.42255364771956644 0.4258312186361891
213594500 0.5954217795234199 0.15559961996697302
216574000 0.6046210512259828 -0.1694473653935107
219553500 0.4396031561410808 -0.45762056039701476
222533000 0.14097435221607235 -0.6151489791132772
225512500 -0.20080198073812858 -0.5858067097942621
228492000 -0.4711143081964896 -0.3705368708348859
231471500 -0.576884822536077 -0.04548547583011711
234451000 -0.48759948285975113 0.2789733820496049
237430500 -0.24345196907127886 0.4977069439649699
240410000 0.07266030192831693 0.5522636394278911
243389500 0.3662973103892961 0.4346212453353239
246369000 0.5556134160885458 0.18241086409319904
249348500 0.5849413661485374 -0.13415212370492616
252328000 0.44061586577645384 -0.42244385563216197
255307500 0.15929848393114684 -0.5916877648905551
258287000 -0.17191865046857888 -0.5790589056521651
261266500 -0.4417627267609749 -0.38744178037375276
264246000 -0.5627312905060509 -0.08259942592500351
267225500 -0.4991710213387144 0.2324087983560703
270205000 -0.2828916789040782 0.46073960730621655
273184500 0.011916099921189886 0.5404940673093835
276164000 0.3047668510938955 0.4574509225671089
279143500 0.5117465397892 0.23665084777696327
282123000 0.574903169705547 -0.06294222820524474
285102500 0.46985711394136415 -0.3559599458772958
288082000 0.22005140642580118 -0.5525860231088877
291061500 -0.10059520194466595 -0.5786615449143229
294041000 -0.3825367983183735 -0.42633208820935514
297020500 -0.5337760321169649 -0.14581856323681647
300000000 -0.4996499103040865 0.16479711782001932
