# Hz S RI R 50
200000 -0.9065955385677712 0.3039630731308523
204000 -0.903702695878894 0.3116296078789915
208000 -0.9014892351670913 0.31912859150523576
212000 -0.8984592480086211 0.32705226629154827
216000 -0.8956876243770302 0.3350123708395023
220000 -0.8920032015283476 0.3430895066231324
224000 -0.8890388840965421 0.3516718334020671
228000 -0.8857282527383318 0.35980164461642683
232000 -0.8820777226878608 0.36854598770691155
236000 -0.8787412182024966 0.3775124321466613
240000 -0.874996315273166 0.3867716982922276
244000 -0.8706783689135386 0.3962243437759517
248000 -0.8666601595023053 0.40541625233056444
252000 -0.861884453829386 0.4151504735622278
256000 -0.8567632323411972 0.42498562558618963
260000 -0.8515491485211301 0.43526460891868635
264000 -0.8462628329558468 0.4459091275489295
268000 -0.8400906798497321 0.4569974314567425
272000 -0.8341088180775995 0.46841665531579174
276000 -0.8275176480139776 0.4798770300370933
280000 -0.8198978256094706 0.4920008277961333
284000 -0.8125956199718237 0.504195915767664
288000 -0.8043581319354596 0.5173138097358854
292000 -0.7955929682971236 0.5308874755670251
296000 -0.7860914926884238 0.5452319788295664
300000 -0.7756997701876199 0.5600662776532307
304000 -0.7642401709331015 0.5749985570775625
308000 -0.7517070145889543 0.59095856263106
312000 -0.7383859698286659 0.6074913281020579
316000 -0.7234254794150028 0.6252810563999942
320000 -0.7066597389770252 0.6435405665371513
324000 -0.6883754235793094 0.6627064266524523
328000 -0.6676380361935923 0.6831165598119877
332000 -0.6450154903065535 0.7038255449476449
336000 -0.6193360759587384 0.7263003290475176
340000 -0.5903668192166832 0.7500942495982834
344000 -0.5566936756527179 0.774335110568021
348000 -0.5187996496850196 0.7995850537762716
352000 -0.47539439120341936 0.824454031381549
356000 -0.4243743227427707 0.8503325143319993
360000 -0.3655106142336126 0.87602203525753
364000 -0.2960606286044609 0.8996539932010588
368000 -0.21417452625647745 0.9196776927039209
372000 -0.11800852811039145 0.9333474796597571
376000 -0.004469103052372393 0.9362719434076733
380000 0.12741768549422444 0.9218918930325383
384000 0.2782432507378355 0.8801832109773902
388000 0.44263321037384795 0.7994906687314878
392000 0.6102201003905896 0.6656304257392371
396000 0.757898292339147 0.4676853597513232
400000 0.853301707733802 0.20845609552937822
404000 0.863777775623603 -0.08935663563149192
408000 0.7737372157856358 -0.38111907406103224
412000 0.5988013789954755 -0.6202950936621976
416000 0.375799560794335 -0.7800477742346269
420000 0.14539803065229165 -0.8608104084442966
424000 -0.06521371090517342 -0.878777084992723
428000 -0.24437478514899166 -0.8553484864991121
432000 -0.3908651819792308 -0.8074441405697896
436000 -0.5071655138516632 -0.7480865480062849
440000 -0.5990328458254921 -0.6845725848059955
444000 -0.6712133297213282 -0.6209619090330306
448000 -0.7273668381775188 -0.5608798018387339
452000 -0.7721607223429812 -0.503761871842501
456000 -0.8077734608954146 -0.4509026061784444
460000 -0.8359787565371213 -0.40188665625913994
464000 -0.8586750384495062 -0.35709063747903586
468000 -0.8765521103073745 -0.31582743865316104
472000 -0.8912120541884239 -0.27814998988510475
476000 -0.9027767745051996 -0.24319817396515095
480000 -0.9121716850072014 -0.21100799853419128
484000 -0.9198151203342917 -0.1812924053587976
488000 -0.9257168375233368 -0.15352803884178703
492000 -0.930606925739452 -0.1280733043950612
496000 -0.9344990633483987 -0.10395940858378988
500000 -0.9373413450810392 -0.08139961348054654
504000 -0.9396756593214527 -0.06064999064118802
508000 -0.9413613447236425 -0.04057732778902112
512000 -0.9428112793636261 -0.022184868230559377
516000 -0.94365169360261 -0.004428699579523561
520000 -0.9437542756535164 0.012326559080185151
524000 -0.9439771948904169 0.027742672739781496
528000 -0.9438799115098094 0.042830639206427504
532000 -0.9435462408203766 0.056827140486260634
536000 -0.9431479459727641 0.07059862214666215
540000 -0.9422571254519616 0.08364399882700013
544000 -0.9413363108428952 0.09613787647514083
548000 -0.9401971611992529 0.10820470289221087
552000 -0.9393863250810767 0.11940433821823965
556000 -0.9381586831560462 0.13035942374871
560000 -0.9370310142660121 0.14111958993360135
564000 -0.9356640754248879 0.1516374723319256
568000 -0.9343572160689125 0.16151646071152753
572000 -0.9326308039292605 0.1711234516678391
576000 -0.931116524999213 0.18064523600599874
580000 -0.9294436087576281 0.18922628072184158
584000 -0.9280253853701842 0.19830090121353966
588000 -0.9263174058234583 0.20651111938950717
592000 -0.9244426863033655 0.21488727144968686
596000 -0.9228085586357893 0.22302425634960943
600000 -0.9208110108565463 0.2304111307793314
