# Hz S RI R 50
50000 -0.9553887143529218 0.06984092868425562
59500 -0.9519110426487832 0.08314653315936003
69000 -0.9508464692546532 0.09652384505939215
78500 -0.9490352612333012 0.11000082666441117
88000 -0.9473274243677277 0.1235209473572398
97500 -0.9457198682504999 0.1375432905915232
107000 -0.9434045398438591 0.15144141214027668
116500 -0.9412281473755008 0.165672703696284
126000 -0.938616133072111 0.1803361395433961
135500 -0.9355446288792821 0.19449794701600995
145000 -0.9323355892342546 0.20939884035787082
154500 -0.9291661023414071 0.22494787162571558
164000 -0.9250178848627545 0.24049166895329116
173500 -0.9208966936504603 0.2566011035489896
183000 -0.9162382328478216 0.2731156518239933
192500 -0.9111876867650424 0.2899861403897635
202000 -0.905185924041446 0.3079111973954083
211500 -0.8991510611340149 0.3262849031442417
221000 -0.8916770671170788 0.3451943982124507
230500 -0.8838223768657476 0.36536157623146354
240000 -0.8751912449873575 0.3867632764873446
249500 -0.8652299133121374 0.4091619916025471
259000 -0.8531269227314289 0.4331440495983987
268500 -0.839653528333248 0.4587610406910122
278000 -0.8239737390609222 0.4860815655960118
287500 -0.8057642272862328 0.515860821968215
297000 -0.783736360912371 0.5488977511664529
306500 -0.7566587257461225 0.585043238620616
316000 -0.7232904433788301 0.6255859746704863
325500 -0.6808524529430215 0.6705585768861622
335000 -0.6257322642945531 0.7207256470971263
344500 -0.5520366949448811 0.777755912521335
354000 -0.4502168159433059 0.8380285935740945
363500 -0.3043624319834672 0.8974527449020284
373000 -0.08940671364864901 0.9354952467906089
382500 0.22268729401366252 0.8989579275625005
392000 0.6136205311286252 0.6617866198879825
401500 0.8687556339459742 0.09195224416384583
411000 0.6431990711945682 -0.5729741149138898
420500 0.1112810316085407 -0.8668728181239832
430000 -0.3262005132991166 -0.8317479546538926
439500 -0.5914766106523985 -0.6902200087398708
449000 -0.7412989409265647 -0.5438812831567331
458500 -0.8273298152037498 -0.4180401832901821
468000 -0.8773051609676196 -0.31438265311124797
477500 -0.9068609529602275 -0.2294488995503672
487000 -0.9247094309519899 -0.15922622244518625
496500 -0.9351123566567509 -0.10012722107069237
506000 -0.9410873115136418 -0.049523962906199016
515500 -0.9438687682066028 -0.005747517259925238
525000 -0.9442390255156298 0.03227729339927569
534500 -0.9435260522210432 0.06645860629403373
544000 -0.9416580632994935 0.09674418125752382
553500 -0.9389579500730532 0.12418986630750789
563000 -0.9360072070953096 0.14959102139808386
572500 -0.9324394943391099 0.1729147824204356
582000 -0.928830078659575 0.19446555997909104
591500 -0.9246076338778012 0.21433531083780905
601000 -0.9204997392815716 0.23293650946009734
610500 -0.9161040013815087 0.2505784526751012
620000 -0.9120241876628804 0.26730754918062455
629500 -0.9077751478868109 0.28306653248264346
639000 -0.9031353619257763 0.29773592947809885
648500 -0.8984363196499339 0.3125982824833475
658000 -0.8936423176872008 0.32613371718035505
667500 -0.8889220248190699 0.3392775274861692
677000 -0.8841761975540353 0.35190093500423164
686500 -0.8793581718054958 0.3645833574848313
696000 -0.8748028367235904 0.3760077265984316
705500 -0.8699859697127912 0.38736110030952703
715000 -0.8651756646147839 0.39870646392856673
724500 -0.8602399257156418 0.4097647256419767
734000 -0.8554168231518169 0.4201450613608096
743500 -0.8507049500021033 0.43020800433362055
753000 -0.8454530595414511 0.44032358332841903
762500 -0.8404906263891012 0.4502385697547356
772000 -0.8360877465854868 0.4594215701501462
781500 -0.8305288842601277 0.46918149977039175
791000 -0.8254062657547085 0.4780132888044183
800500 -0.8205219583968265 0.4866278836654217
810000 -0.8155752942160939 0.49576602116939317
819500 -0.8104289425543888 0.5038684904670052
829000 -0.8051530278680562 0.5126654212438155
838500 -0.8003187538090363 0.5203900005267884
848000 -0.7951040397318492 0.5284259452349628
857500 -0.7899683046883906 0.5363261245693149
867000 -0.7846179420005588 0.5440261281127948
876500 -0.7793871013265637 0.5519213541392474
886000 -0.774134470625003 0.5595539864866046
895500 -0.7688388117123658 0.566845995623785
905000 -0.7635599818411895 0.5739557841676767
914500 -0.7586429208411579 0.5810485526292407
924000 -0.7536023405955554 0.5878592786054592
933500 -0.7484247233990536 0.5946624649072829
943000 -0.7429078420047874 0.6018835274163192
952500 -0.7375529642357052 0.6086488950643271
962000 -0.7318333389669193 0.615094420527937
971500 -0.7270784188803279 0.6214394235934826
981000 -0.72118256805091 0.6278306915934954
990500 -0.7161635358086295 0.6342483571072828
1000000 -0.7107667995191018 0.6400488151377355
