# HZ S RI R 50
100000 -0.016334329513743553 -0.00023749124401040487 0.9996408445883956 -0.0003461112821113097 0 0 0 0
1094527 -0.01603849592802768 0.0011299688317597018 0.9996471867980594 -0.00616074933512804 0 0 0 0
2089054 -0.015638843216732496 0.0014660846584355425 0.9995568394510362 -0.007933326991343394 0 0 0 0
3083581 -0.015281024049362811 0.001599341750003114 0.9997692323184992 -0.00916755005878323 0 0 0 0
4078108 -0.015006434752413138 0.0017536002600510182 0.999236038905877 -0.010129522990432693 0 0 0 0
5072635 -0.014668211499329203 0.002198951513671124 0.999363902197372 -0.01178256662758015 0 0 0 0
6067162 -0.013875201719673989 0.0020936046225793325 0.9985492471613555 -0.016415819664891296 0 0 0 0
7061689 -0.014628488680381217 0.0022229706913129465 0.9996230812898955 -0.015818945249847654 0 0 0 0
8056216 -0.014327416941033622 0.0025596513686451175 0.9993245994110994 -0.018341594389624297 0 0 0 0
9050743 -0.01427309998752145 0.0024829687836891426 0.99859766210995 -0.020333748554070247 0 0 0 0
10045270 -0.013853250448393029 0.002865329548062342 0.9994085281688523 -0.02246873715240261 0 0 0 0
11039797 -0.01374100400781631 0.0029180602075363983 0.9997097130348533 -0.02463079396561531 0 0 0 0
12034324 -0.013396139211762253 0.0029434265390493705 0.9995627908278429 -0.02669879647926654 0 0 0 0
13028851 -0.012957910464169132 0.00302542948457765 0.9988904679362265 -0.028770757720597895 0 0 0 0
14023378 -0.012693004917329097 0.003133276302640891 0.9987660656711037 -0.030926256609219632 0 0 0 0
15017905 -0.012467169624030518 0.0031290129077103887 0.9990978251198013 -0.033160217957214695 0 0 0 0
16012432 -0.012164159320848085 0.0031779803991487873 0.9992106185973616 -0.03543096432244362 0 0 0 0
17006959 -0.011783166307893342 0.003315400345097705 0.9986595944583602 -0.03745949717068761 0 0 0 0
18001486 -0.011649884732782076 0.0034054132407110357 0.997794671898906 -0.03968567702192025 0 0 0 0
18996013 -0.01142702869150276 0.0035355208131392993 0.9985463328455223 -0.04180931940637594 0 0 0 0
19990540 -0.011142341122898658 0.0035558455989544717 0.9988024394172097 -0.04394803677538796 0 0 0 0
20985067 -0.010888595082382335 0.0036173319426447423 0.9984803509754901 -0.04617203059204718 0 0 0 0
21979594 -0.010556531283932528 0.0035122630235465938 0.9978235398429154 -0.04824526147857787 0 0 0 0
22974121 -0.010234467141947626 0.003669686615878953 0.997519951588964 -0.050524221898551006 0 0 0 0
23968648 -0.009992490430499592 0.003495876881413661 0.9980227283463705 -0.0525764781799706 0 0 0 0
24963175 -0.009920989075706927 0.003563205905934748 0.9980592354989364 -0.05466681657556971 0 0 0 0
25957702 -0.00963398553574972 0.003487868179697856 0.9975513128353715 -0.05681620849175518 0 0 0 0
26952229 -0.009378124756539617 0.003625922628502011 0.9967135058487613 -0.05869080588469144 0 0 0 0
27946756 -0.00908264731435534 0.0035031031126462383 0.9971729102931116 -0.060989823246033074 0 0 0 0
28941283 -0.008943065304968332 0.0032984492743755823 0.9973455439237877 -0.06330185876974731 0 0 0 0
29935810 -0.008338677462687807 0.0033707021782102813 0.997174998890151 -0.06529496181936735 0 0 0 0
30930337 -0.008251876314524044 0.003387250621303618 0.9965200308500732 -0.06726757963627501 0 0 0 0
31924864 -0.007806289336807983 0.003383620001584214 0.9962615479059364 -0.06968319161373605 0 0 0 0
32919391 -0.007517916088116964 0.0033163850319151322 0.9966319716180078 -0.0716489622022812 0 0 0 0
33913918 -0.007187011092946145 0.00342923292764994 0.9967259917471335 -0.07367446926466652 0 0 0 0
34908445 -0.006914363701997751 0.003320332913933482 0.9960264793128042 -0.07576620346118576 0 0 0 0
35902972 -0.006481238781912457 0.0034226869950003216 0.9950151847330071 -0.07789227749934126 0 0 0 0
36897499 -0.006130142848362077 0.0031038514217937617 0.9957191511952582 -0.08021673779862666 0 0 0 0
37892026 -0.005728831574043413 0.003361980898618895 0.9958927678591998 -0.08261522318816066 0 0 0 0
38886553 -0.005348111391098006 0.003183332380976482 0.9955757584540501 -0.08466531217733184 0 0 0 0
39881080 -0.005038543715729 0.0029646186581354745 0.994808870446559 -0.08665186742174003 0 0 0 0
40875607 -0.004751495595048294 0.002845274333186837 0.9945026032993267 -0.08871093468709748 0 0 0 0
41870134 -0.0044223521201678506 0.0028957597272366567 0.9948012713547719 -0.09090235780228666 0 0 0 0
42864661 -0.004166823997821692 0.003049068489061861 0.9949341770368488 -0.09303285477223976 0 0 0 0
43859188 -0.0038372053997181984 0.0029895086150896672 0.9943747465838756 -0.09527254615277367 0 0 0 0
44853715 -0.0036569455862883646 0.0027224900116248844 0.9932251568538998 -0.09707943004434427 0 0 0 0
45848242 -0.0031373836171715384 0.002643629937269549 0.993859269679233 -0.099252310907652 0 0 0 0
46842769 -0.0028338587408191086 0.002586924654749104 0.9939328531612617 -0.10141945664574664 0 0 0 0
47837296 -0.0025679794976191106 0.0024759164865915213 0.9937069206662492 -0.10361027202566951 0 0 0 0
48831823 -0.0020878216724083995 0.002200007988343076 0.9926989349434189 -0.10573405111340044 0 0 0 0
49826350 -0.0017870525916577644 0.0021364690499781707 0.9925190740462518 -0.10783641259060026 0 0 0 0
50820877 -0.0014798845103263306 0.002340412083760066 0.9929369652126716 -0.11000619844942798 0 0 0 0
51815404 -0.0009717381636706351 0.0020561100080823762 0.9926977431797969 -0.11208998191734049 0 0 0 0
52809931 -0.0005280016503819582 0.0019164600540283584 0.9921701483842562 -0.11418725704522326 0 0 0 0
53804458 -6.170358593482895e-05 0.0018769022086765658 0.9913480792227979 -0.11614141012634802 0 0 0 0
54798985 0.0003319865746251399 0.0019808338199959726 0.9919372174110719 -0.11850495314287622 0 0 0 0
55793512 0.000557034858240501 0.0017805656427863337 0.9918970072988 -0.12056355276897023 0 0 0 0
56788039 0.001093549157742659 0.001487107661294128 0.9914416447540028 -0.1228394947168974 0 0 0 0
57782566 0.0013907800167560621 0.001315473902217712 0.9906590350353818 -0.12476120050100474 0 0 0 0
58777093 0.0018851186713028285 0.0010194002570402872 0.990287130425257 -0.12700836062983425 0 0 0 0
59771620 0.002095994298627658 0.0010504665226388258 0.9907413755534302 -0.12914202187576385 0 0 0 0
60766147 0.0025427489118301765 0.0006555445413196606 0.9903088396933635 -0.13133412866762548 0 0 0 0
61760674 0.0028513055614703946 0.00036991786904077206 0.9896715744340868 -0.13333387977238162 0 0 0 0
62755201 0.00329162453688681 0.0004100809433842442 0.9888063912801439 -0.13526903727730866 0 0 0 0
63749728 0.0035417766130084994 8.902108036265067e-05 0.989379772745537 -0.13759702416284897 0 0 0 0
64744255 0.004084295398825078 -5.764434541451044e-05 0.9893373788290352 -0.1397454135602845 0 0 0 0
65738782 0.004423665839608886 -0.00030571716008044234 0.9890124907037299 -0.1417273839978818 0 0 0 0
66733309 0.004823133124138836 -0.0005293492690848857 0.9880179972625134 -0.1437613333993142 0 0 0 0
67727836 0.005348642406323764 -0.0008784235842412479 0.987576919561131 -0.14610995295024742 0 0 0 0
68722363 0.005963443502856572 -0.0009324877140033939 0.9881220529957856 -0.14835215403589358 0 0 0 0
69716890 0.006285356605548721 -0.0009302160340400872 0.9878849036351866 -0.15044424307364135 0 0 0 0
70711417 0.006895448676092774 -0.0013767701769136428 0.987081976421185 -0.1527188916797362 0 0 0 0
71705944 0.007315240774209986 -0.0014383587555596964 0.9861589645218541 -0.15490756521713092 0 0 0 0
72700471 0.007782041137455575 -0.0018020339548824565 0.9866149433526139 -0.1569974350574477 0 0 0 0
73694998 0.008263855425550463 -0.0019827125385108117 0.986832790078816 -0.1594055878526336 0 0 0 0
74689525 0.008661079571560525 -0.002210889220808366 0.986262860277396 -0.16144052273215567 0 0 0 0
75684052 0.009341495687202554 -0.002550285571188834 0.9855073056495259 -0.16334016662579315 0 0 0 0
76678579 0.009635634144377929 -0.0030430762651806214 0.9849611612034365 -0.16546988608173874 0 0 0 0
77673106 0.010090491966091724 -0.0031588398606757565 0.985273043766961 -0.16772599572524122 0 0 0 0
78667633 0.01060903834152595 -0.0032982771495601495 0.9850615494135226 -0.17014950568046583 0 0 0 0
79662160 0.011011346203936252 -0.0036107210289637657 0.9844244442305133 -0.17207271558976248 0 0 0 0
80656687 0.011342976189783097 -0.003948319525006048 0.9831639368252276 -0.17374981788903177 0 0 0 0
81651214 0.011760253825584635 -0.004153223630078637 0.98371241676928 -0.1762635223458802 0 0 0 0
82645741 0.012352607038266353 -0.004438344216113278 0.9833604377369947 -0.1783482161450739 0 0 0 0
83640268 0.012832001771848447 -0.0047334713990420324 0.9829866564755669 -0.18077255778394138 0 0 0 0
84634795 0.013284802858390713 -0.005124016792609653 0.9818795284162402 -0.18271060885829637 0 0 0 0
85629322 0.013806523914342993 -0.005259429880416477 0.9815022356859807 -0.18491902039298083 0 0 0 0
86623849 0.014100222496892521 -0.0057211253447125255 0.9816937123246301 -0.1869741258772931 0 0 0 0
87618376 0.014827988252162454 -0.006084215340756997 0.9814487838280272 -0.18921610190551302 0 0 0 0
88612903 0.01514030297972469 -0.006450022608267074 0.9807922824330402 -0.19123206951040808 0 0 0 0
89607430 0.015661903822616088 -0.006839179877926548 0.9798454623326691 -0.19325242182510957 0 0 0 0
90601957 0.016331887691606425 -0.007171639177813529 0.979884564124182 -0.1957797005257611 0 0 0 0
91596484 0.01669831467771821 -0.00765186398799888 0.9798305969735225 -0.19800563784430572 0 0 0 0
92591011 0.017157672622090298 -0.008241728540247748 0.9791213350436445 -0.19998798144287613 0 0 0 0
93585538 0.017551708027873803 -0.008215678889079082 0.978134046362035 -0.2022795552123599 0 0 0 0
94580065 0.018010401298710173 -0.00882611567239125 0.9774265569710184 -0.20412227528965557 0 0 0 0
95574592 0.01846900291362567 -0.009155721730390205 0.9775732608478244 -0.20649069357927957 0 0 0 0
96569119 0.01902886975413468 -0.009782892184580557 0.9771266153860103 -0.20899755962673502 0 0 0 0
97563646 0.01938910054986969 -0.010240538705996845 0.9765027141903211 -0.21096130484445727 0 0 0 0
98558173 0.019910174729513872 -0.010785169418790177 0.9752941539471213 -0.21305139663774555 0 0 0 0
99552700 0.020417271824557225 -0.011290256817179179 0.9755907501420684 -0.21544695249872015 0 0 0 0
100547227 0.02062028491900276 -0.011262974947896189 0.9755669228745557 -0.21756101502428007 0 0 0 0
101541754 0.02138031287220646 -0.012026266101990495 0.9749333973845813 -0.21997326608820472 0 0 0 0
102536281 0.021872530752460286 -0.012501531115055111 0.9740039486398163 -0.22197763509345197 0 0 0 0
103530808 0.022168594963111358 -0.013138297327714748 0.9733964645215595 -0.2242409453731725 0 0 0 0
104525335 0.022684044359135697 -0.013617711143200964 0.9735567011479445 -0.2265810934686017 0 0 0 0
105519862 0.023244686367897015 -0.014247733406285098 0.9728633128183456 -0.22875448475676086 0 0 0 0
106514389 0.023683456483489986 -0.014856625034294866 0.9721285206368926 -0.23088211962773758 0 0 0 0
107508916 0.024048590599089415 -0.01520024578679666 0.970722132039322 -0.23301019840325216 0 0 0 0
108503443 0.02452906464240682 -0.015960827203320285 0.9708764872755719 -0.23530287752354523 0 0 0 0
109497970 0.025199183911085783 -0.016525243958760885 0.9705480544561467 -0.23746020252677394 0 0 0 0
110492497 0.02553196924427536 -0.01712739762599792 0.9700264911198296 -0.23938858356065593 0 0 0 0
111487024 0.025929947394995472 -0.017618376115344243 0.9689547212276309 -0.24148313419626957 0 0 0 0
112481551 0.026434529874838 -0.018231469370600623 0.9682460002248658 -0.24383430970345762 0 0 0 0
113476078 0.026900182484216467 -0.01882723322548673 0.9680835567426284 -0.24592068280339663 0 0 0 0
114470605 0.02715706505763968 -0.019559359726285783 0.9677577593982556 -0.24813163884215875 0 0 0 0
115465132 0.027447585673834908 -0.02013226888240092 0.9667668879923229 -0.25041090581515735 0 0 0 0
116459659 0.027748226923705387 -0.0209918442151971 0.9654100580857914 -0.25226474267855653 0 0 0 0
117454186 0.028159771148314076 -0.021517720553057708 0.9654189332103658 -0.25457642373603945 0 0 0 0
118448713 0.028581644915671455 -0.02211239085177231 0.9649922663399416 -0.25695329694486674 0 0 0 0
119443240 0.028973748110090656 -0.022861954420772455 0.9643746667588128 -0.25900388053814827 0 0 0 0
120437767 0.029494321493664176 -0.023494298943269896 0.9631180655949325 -0.26106390725606354 0 0 0 0
121432294 0.029733053190442484 -0.024261373453168922 0.9624449367814844 -0.2631402356936926 0 0 0 0
122426821 0.03014291364389457 -0.024987721288083818 0.962340071075711 -0.2654738188708036 0 0 0 0
123421348 0.03051164704067064 -0.025809367559402354 0.9617178553508502 -0.2676632597987329 0 0 0 0
124415875 0.030887573554214353 -0.026541259090610496 0.960729888945708 -0.2696787323073542 0 0 0 0
125410402 0.031231014214229143 -0.027450594086917777 0.9594263220025485 -0.2716840799541944 0 0 0 0
126404929 0.03153371122232655 -0.028070745221453378 0.9592840392993466 -0.27401152484141844 0 0 0 0
127399456 0.03157590682883139 -0.02890114929508973 0.9589703791930629 -0.27616442917186507 0 0 0 0
128393983 0.03183112113436251 -0.029681464197126962 0.9580586303592765 -0.2782524673897094 0 0 0 0
129388510 0.03222455659535023 -0.03045821662100486 0.9567380197938815 -0.28017703496882834 0 0 0 0
130383037 0.03244143592354037 -0.031200050289586518 0.9558586717953242 -0.2822473532556347 0 0 0 0
131377564 0.03279489087611035 -0.03202505972822158 0.9556239289446469 -0.2845939450172911 0 0 0 0
132372091 0.033012056926527776 -0.03289825450561323 0.95505905248923 -0.2866679748027309 0 0 0 0
133366618 0.03339726376944845 -0.03366415429376766 0.953805069237261 -0.28867901217544223 0 0 0 0
134361145 0.03368859707507603 -0.03457950201644695 0.9523412996501265 -0.29047995913720764 0 0 0 0
135355672 0.034013500154213144 -0.0354402091589287 0.9523010180998728 -0.29287007872459886 0 0 0 0
136350199 0.03411164422831033 -0.036316582821521774 0.9519648004394543 -0.2951385707436777 0 0 0 0
137344726 0.03429574495487483 -0.037376844649287366 0.9511228651684869 -0.2971364036026893 0 0 0 0
138339253 0.03451361887761255 -0.038085844122305514 0.9497649770464108 -0.2991411611911501 0 0 0 0
139333780 0.03461784323418111 -0.03918820897123878 0.9488717368924401 -0.30106428174491445 0 0 0 0
140328307 0.034675772439186694 -0.03992670078931519 0.9485774120007576 -0.30319556429432987 0 0 0 0
141322834 0.03489523001504345 -0.04085955605681643 0.947870656556078 -0.30530633344765673 0 0 0 0
142317361 0.03489477279108237 -0.041964128395243584 0.9466320210052206 -0.3071910721030488 0 0 0 0
143311888 0.03504145219806762 -0.04285704752370038 0.9450702540012356 -0.30892878550500813 0 0 0 0
144306415 0.03511668196330192 -0.043902036780266294 0.9450940411926384 -0.3112892390740276 0 0 0 0
145300942 0.03543189467035904 -0.0448551735478755 0.9445093539137579 -0.31338935624472947 0 0 0 0
146295469 0.03536817718924601 -0.045575584786513766 0.9435821800710654 -0.31546883268020603 0 0 0 0
147289996 0.03528330143304976 -0.046666670000698324 0.942362933077062 -0.3173114091856152 0 0 0 0
148284523 0.03532726307131238 -0.04751816970430015 0.9413884272927453 -0.3192931095634487 0 0 0 0
149279050 0.0352528162663214 -0.04851774517877249 0.9409508506291426 -0.3213262663573826 0 0 0 0
150273577 0.03541197397185805 -0.04977758209514049 0.9399142279132987 -0.3232556518144336 0 0 0 0
151268104 0.035088630265174656 -0.050646164804222425 0.9390555793797045 -0.3252695943152151 0 0 0 0
152262631 0.03502620747109226 -0.05163256964795832 0.9372217256781314 -0.3269002711528471 0 0 0 0
153257158 0.03503743262062088 -0.05262544193108947 0.9368189635324953 -0.32903167433683544 0 0 0 0
154251685 0.034868307035709936 -0.05374188111702843 0.9361937771017997 -0.3310374548727487 0 0 0 0
155246212 0.034821674228327555 -0.05456747099042999 0.9352055061991472 -0.3330495980984028 0 0 0 0
156240739 0.03449903496942296 -0.055725000698131986 0.9338398119197436 -0.33482223098222486 0 0 0 0
157235266 0.03469027711118556 -0.05668369020467822 0.9326862947201268 -0.33676814638981956 0 0 0 0
158229793 0.03433596656265335 -0.057740589740609125 0.9322778834853016 -0.3388132725086708 0 0 0 0
159224320 0.034134881237900046 -0.05890030898242644 0.9314959021692922 -0.34071153967390266 0 0 0 0
160218847 0.0341822114070709 -0.05963902174063672 0.9303961265084917 -0.3426297740992447 0 0 0 0
161213374 0.03398769597748739 -0.0609251480726945 0.9285646192664746 -0.3441370223212393 0 0 0 0
162207901 0.03381787375066 -0.06176294824567475 0.928375305431957 -0.3462729392316309 0 0 0 0
163202428 0.03361898928184191 -0.06282465257017698 0.9276641103016195 -0.3481797276094029 0 0 0 0
164196955 0.033179387882298204 -0.06379990363080722 0.9265970433113833 -0.349976385151362 0 0 0 0
165191482 0.032903058768274054 -0.06470992175353936 0.9251940808880699 -0.3516811349329395 0 0 0 0
166186009 0.03220113147455467 -0.06579393103684444 0.9242308318177267 -0.3535223977948204 0 0 0 0
167180536 0.03201305220626582 -0.06678886496847153 0.9237596269487757 -0.35564454906799836 0 0 0 0
168175063 0.03163366010667323 -0.06801078590015623 0.9227968144208882 -0.3575857106904342 0 0 0 0
169169590 0.03126561169815719 -0.06927889443424246 0.9215861962567511 -0.3592530137234998 0 0 0 0
170164117 0.030829712512939113 -0.07036842989971463 0.9197762041876651 -0.36080110777189517 0 0 0 0
171158644 0.030534559570277054 -0.07140020512793556 0.9196135587613972 -0.3630192612871733 0 0 0 0
172153171 0.030050561128590222 -0.07229596192247403 0.9189020741899975 -0.36485700174107266 0 0 0 0
173147698 0.029459420871900566 -0.0734803954018468 0.9179461592718274 -0.3666353561079852 0 0 0 0
174142225 0.0289557347795447 -0.07433109109371272 0.9165784309830483 -0.3683691431247127 0 0 0 0
175136752 0.028441766376299953 -0.07540598586512415 0.9155544608378118 -0.37018536768349314 0 0 0 0
176131279 0.027861069184710107 -0.07642103608880413 0.9149020754783027 -0.3720877173245791 0 0 0 0
177125806 0.02720908720557244 -0.07726179804661246 0.9142017025230987 -0.3738479894476027 0 0 0 0
178120333 0.026443481629744497 -0.07846804721050035 0.9130700209620297 -0.3752340988793103 0 0 0 0
179114860 0.0259360931290686 -0.07931752605378616 0.9114510822470767 -0.3769655382886988 0 0 0 0
180109387 0.02531725659783104 -0.08059379646406319 0.9111897780902254 -0.37889718536116096 0 0 0 0
181103914 0.024786007694897066 -0.08139041366876987 0.9103432368668065 -0.38070543792335515 0 0 0 0
182098441 0.02409964635925805 -0.08233600509101376 0.9093618536146344 -0.3823484344818234 0 0 0 0
183092968 0.023558391738184067 -0.08314267902839506 0.9079592290939713 -0.38394774972729 0 0 0 0
184087495 0.022896914559706324 -0.0842985033212093 0.9068489387307319 -0.3856080762466174 0 0 0 0
185082022 0.02217970327918379 -0.08519909717836725 0.9063565880016021 -0.3875828066315803 0 0 0 0
186076549 0.021489527249663163 -0.08612983821938669 0.9056547989156916 -0.3894515051867945 0 0 0 0
187071076 0.020774024202004956 -0.08683791950262248 0.9044433126675018 -0.39104103750333147 0 0 0 0
188065603 0.01982507330129173 -0.08800338397334385 0.902953371969187 -0.3926825305913486 0 0 0 0
189060130 0.01887978123286603 -0.08916301896593336 0.9024735741288351 -0.39436529200330844 0 0 0 0
190054657 0.017843132220957944 -0.09033268534971073 0.9020858904303621 -0.39613666895380434 0 0 0 0
191049184 0.016796812687878082 -0.09127837208347243 0.901068449849033 -0.39791046570988353 0 0 0 0
192043711 0.015644823210776957 -0.09237347595204122 0.899513977218639 -0.39913653526138715 0 0 0 0
193038238 0.014763537143890386 -0.09320002563832576 0.8986519915668704 -0.4008901126466161 0 0 0 0
194032765 0.013804805580472508 -0.09364260415769042 0.8982071956389563 -0.4029970520966551 0 0 0 0
195027292 0.012554572081191645 -0.09413287838574746 0.8976022600581745 -0.40465853100790933 0 0 0 0
196021819 0.011756435268906025 -0.09470894306539382 0.8962054112518678 -0.40622977641642277 0 0 0 0
197016346 0.010658530175399254 -0.0952688362915276 0.8949205897469328 -0.4075071968946266 0 0 0 0
198010873 0.009791068039971549 -0.09608329894959121 0.8943906529568599 -0.4095696278747042 0 0 0 0
