# HZ S RI R 50
100000 -0.016656233388893563 -0.0002271411599410157 0.9995171185071808 -0.0003561529599963212 0 0 0 0
1094527 -0.016103379843093544 0.0011173186501095148 0.9998210276987284 -0.00600521154502827 0 0 0 0
2089054 -0.015709892117702073 0.0015242916670737943 0.9995607255328345 -0.00800485333363033 0 0 0 0
3083581 -0.015278436999081327 0.0016783246576061834 0.9997727614703624 -0.009080163992837568 0 0 0 0
4078108 -0.015109938072033315 0.0016482313465571638 0.9991972037295274 -0.009967649904348924 0 0 0 0
5072635 -0.014671413875626087 0.0021661396418503755 0.9992243663101207 -0.011540559631803548 0 0 0 0
6067162 -0.01407071365198221 0.0020455073718831534 0.9987137255810347 -0.016150076782908307 0 0 0 0
7061689 -0.014778145142413579 0.0021875367601648854 0.9996527887615205 -0.015419275598062136 0 0 0 0
8056216 -0.01438603765853473 0.0023993278582614386 0.9993544744936779 -0.017755550948225722 0 0 0 0
9050743 -0.014376084610033698 0.0026528328604585928 0.998563922808742 -0.01972691641248802 0 0 0 0
10045270 -0.01394560428967999 0.002761579437557171 0.9994880092434143 -0.021769438969853654 0 0 0 0
11039797 -0.013759294883212739 0.002901730115530272 0.9998696501509934 -0.024000399283464424 0 0 0 0
12034324 -0.013318884567127778 0.002851667889315499 0.9995427975376374 -0.026005047611703518 0 0 0 0
13028851 -0.013147094604304407 0.0030179253660131003 0.9989003412698624 -0.028000379725351156 0 0 0 0
14023378 -0.012774430394555532 0.003027928209577501 0.9988171911225823 -0.030158630485080225 0 0 0 0
15017905 -0.012586425785622172 0.0029615463438201653 0.9993172584604983 -0.03223640566654741 0 0 0 0
16012432 -0.012316969532458658 0.003095796040887466 0.9993367904401474 -0.03427334224896153 0 0 0 0
17006959 -0.011936085027229384 0.003237963093940174 0.9987084861472093 -0.036386846861654394 0 0 0 0
18001486 -0.011768658933271642 0.003340956233563833 0.9979877663457126 -0.03857807760830001 0 0 0 0
18996013 -0.011606465927141865 0.0034587657134428243 0.9986410817132356 -0.04061726795040666 0 0 0 0
19990540 -0.011325757381996173 0.0034938550530032313 0.9988907396152992 -0.042602402510317716 0 0 0 0
20985067 -0.011187861956933026 0.0035343931622357394 0.9985554409325694 -0.0448091113468188 0 0 0 0
21979594 -0.010737250258170307 0.00351132215134393 0.9978037908925199 -0.04688750680569844 0 0 0 0
22974121 -0.010550451819927626 0.003615703559482743 0.9978707996309482 -0.0489180080073113 0 0 0 0
23968648 -0.010204263278355314 0.003513572204307745 0.9982045427394544 -0.05110051472312837 0 0 0 0
24963175 -0.010157832941821984 0.003540910244933187 0.9982986418339396 -0.053073633613811094 0 0 0 0
25957702 -0.009737660520579266 0.0035252410671026556 0.9977257706039355 -0.0551078310639658 0 0 0 0
26952229 -0.0096983282838673 0.0034211677362347643 0.9969298767049349 -0.057041595610065936 0 0 0 0
27946756 -0.009367590104647848 0.003368646317405839 0.9974455767978142 -0.05929518753494011 0 0 0 0
28941283 -0.009094575746398104 0.0032878915914389714 0.9976412300280513 -0.061447355055017444 0 0 0 0
29935810 -0.008762086778860007 0.0031861503136366644 0.9973906177803993 -0.06351870864881044 0 0 0 0
30930337 -0.008598003695703401 0.003231687763627687 0.9966913798749715 -0.0654584645001111 0 0 0 0
31924864 -0.008288873696098901 0.003321177912523001 0.9963991198554967 -0.06758978947357427 0 0 0 0
32919391 -0.007972520105212709 0.003312316946802084 0.9967979900528616 -0.06948831364256884 0 0 0 0
33913918 -0.007773721927715784 0.0033737656564039194 0.9970005199268468 -0.07161992572780264 0 0 0 0
34908445 -0.007289739537538258 0.003321759870157813 0.9963116022472386 -0.07373758807544106 0 0 0 0
35902972 -0.006848898009548287 0.003296865582415172 0.9953328113765325 -0.07570645351936399 0 0 0 0
36897499 -0.0066197861460154175 0.003119410804320491 0.9958791314659206 -0.07787352363382734 0 0 0 0
37892026 -0.006314134174671013 0.0032348543391520572 0.9962728076884448 -0.08010121352652816 0 0 0 0
38886553 -0.0060534151513990985 0.0030918099696555816 0.9959330970396549 -0.08215755394050031 0 0 0 0
39881080 -0.005619825750795238 0.0029698872733297335 0.9949993640006793 -0.08414438599521105 0 0 0 0
40875607 -0.005366249900321634 0.0027888028360183227 0.9947509863039138 -0.08618822031833213 0 0 0 0
41870134 -0.005113741464651983 0.0028576012864775205 0.9950459531913602 -0.08835353721492631 0 0 0 0
42864661 -0.004682240802242742 0.0027466120452552846 0.995292967972551 -0.09030474763382561 0 0 0 0
43859188 -0.004481858939464312 0.0027754227737661796 0.9947520986032441 -0.09244222922152708 0 0 0 0
44853715 -0.0043440837652809735 0.0025659761516851607 0.9936409875624248 -0.09428784558881113 0 0 0 0
45848242 -0.0038148359818228335 0.0026215167871162606 0.9941313604561269 -0.09655963671767223 0 0 0 0
46842769 -0.003669064210865242 0.002431821370467503 0.9942650962441261 -0.09869470693423238 0 0 0 0
47837296 -0.0033099482041759887 0.002470455684422971 0.9941317850345773 -0.10083817204109419 0 0 0 0
48831823 -0.0028066042144730264 0.00213619882990185 0.9930740134696979 -0.10268843965427824 0 0 0 0
49826350 -0.002464515453549011 0.002068837319095439 0.992954764505702 -0.10478726873077986 0 0 0 0
50820877 -0.002165264990391343 0.0019950735112390823 0.9932926106346273 -0.10697907445211309 0 0 0 0
51815404 -0.0019317955093658317 0.001948206746513603 0.9932267756624604 -0.10889720325523726 0 0 0 0
52809931 -0.001538684349842285 0.0018700417948381938 0.9926149741435377 -0.11091973518225168 0 0 0 0
53804458 -0.0010084615229419183 0.0018377661940619824 0.9915779046154323 -0.11288241327286266 0 0 0 0
54798985 -0.0005907530909895722 0.0018355868615863324 0.9921182449196948 -0.11492510293697064 0 0 0 0
55793512 -0.00027319077145502755 0.0016147777422970066 0.9922661782623845 -0.117055372638614 0 0 0 0
56788039 0.00014122793703133431 0.0013910073926676318 0.9917111503265956 -0.11930762227130058 0 0 0 0
57782566 0.0005224052291716866 0.001276100928100884 0.9911736966420563 -0.12121964515344777 0 0 0 0
58777093 0.0006468803140416935 0.0008944146141983386 0.9907319735887443 -0.12337964040379777 0 0 0 0
59771620 0.0011347972438280284 0.0010244462448381658 0.991087045478206 -0.12547292431189916 0 0 0 0
60766147 0.0015094295528075596 0.0005694013967282024 0.9911506178499196 -0.1274791945082604 0 0 0 0
61760674 0.0017740306333253251 0.0003350426535715573 0.9904609968980286 -0.1294330944401182 0 0 0 0
62755201 0.0020532730280098913 0.00037673067249522507 0.9895463805291401 -0.13147385596955213 0 0 0 0
63749728 0.0025697529231019337 0.00011773507820935044 0.9899131500195704 -0.13354144620524036 0 0 0 0
64744255 0.0029948789229541305 -0.00020495278584636552 0.9899516073511804 -0.135781740383628 0 0 0 0
65738782 0.0034447149761176504 -0.00016053184622047637 0.9896259434259032 -0.13782360190344714 0 0 0 0
66733309 0.003891801616097181 -0.0004942319725008454 0.9888026030310525 -0.13961635660221117 0 0 0 0
67727836 0.0043090929195079225 -0.000731841661013438 0.9883696543626643 -0.1416298050511096 0 0 0 0
68722363 0.004799440287836234 -0.0009846239816788999 0.9886313155343828 -0.14428325671428474 0 0 0 0
69716890 0.005185154930889093 -0.0009524435059228043 0.9886472853827184 -0.14625672495575437 0 0 0 0
70711417 0.005535520565675107 -0.0013483727555294181 0.987966947499938 -0.1482424887327057 0 0 0 0
71705944 0.006235852468714975 -0.0015965641835924186 0.9870834680095851 -0.1503661898207407 0 0 0 0
72700471 0.006541660334586682 -0.001914907931390519 0.9872910959318082 -0.15266717877034208 0 0 0 0
73694998 0.007149378049253608 -0.0020818641530809317 0.9876812351079101 -0.15492848273286222 0 0 0 0
74689525 0.007358296223177051 -0.0021397004575661937 0.9873552312363655 -0.15688006274243618 0 0 0 0
75684052 0.007793582134694374 -0.002645836218559714 0.986027063906301 -0.15880163332685976 0 0 0 0
76678579 0.008209690014888795 -0.0028182097081483315 0.9859010953783693 -0.16077020614942739 0 0 0 0
77673106 0.008707098851564336 -0.0030464706973255397 0.9861971230027081 -0.16298721973806524 0 0 0 0
78667633 0.009169440859213097 -0.003319585493137114 0.9859034041959659 -0.16512973227147282 0 0 0 0
79662160 0.009493857675377441 -0.0035481804675427764 0.9854642255445976 -0.1670297184481203 0 0 0 0
80656687 0.009903962724250728 -0.004174606432763757 0.9841604819767524 -0.1690146161782538 0 0 0 0
81651214 0.010620640537702923 -0.0041765587703427726 0.9843853780729483 -0.1711635982502504 0 0 0 0
82645741 0.010830633146811503 -0.0045811458716285445 0.9842550771913494 -0.17364591972757956 0 0 0 0
83640268 0.011391534429238306 -0.004740294792614488 0.9841846933252397 -0.17557906200209647 0 0 0 0
84634795 0.011746099698913326 -0.005028006801690965 0.9831357656066569 -0.17743690909538387 0 0 0 0
85629322 0.012288636312246026 -0.0051990006753252094 0.9825439030153384 -0.1799089397232517 0 0 0 0
86623849 0.01239154579020164 -0.005686801984133878 0.9828973554914971 -0.18177284079706663 0 0 0 0
87618376 0.01308226872533025 -0.006257175816726003 0.9827319962955291 -0.18425262807403037 0 0 0 0
88612903 0.013706663875770402 -0.006575837484518554 0.9822603020572288 -0.1859476703733555 0 0 0 0
89607430 0.014042552281220108 -0.0069703525277122124 0.9811791942332811 -0.18786629253826584 0 0 0 0
90601957 0.014723948407192941 -0.007370708767556936 0.981323281425334 -0.190325945366292 0 0 0 0
91596484 0.015079663993466861 -0.007879979828107809 0.9811675848142634 -0.19255035393410694 0 0 0 0
92591011 0.015348957726432721 -0.008345856778902684 0.9805531948875998 -0.194531359393897 0 0 0 0
93585538 0.015903779098190306 -0.008604406742632407 0.9795370702011086 -0.1965985358024895 0 0 0 0
94580065 0.016391816204136274 -0.009224556321677567 0.9789236010809065 -0.19890565001269478 0 0 0 0
95574592 0.016744354408561223 -0.009726375001207255 0.9789828473891315 -0.20112120655888513 0 0 0 0
96569119 0.01717183341056 -0.010164125358253437 0.9788758719872306 -0.20346902341641146 0 0 0 0
97563646 0.017561539887837728 -0.01068648508755546 0.9780067969123432 -0.20536451227820526 0 0 0 0
98558173 0.01805619951354807 -0.0111480515609419 0.9766738621070647 -0.20727466469126615 0 0 0 0
99552700 0.018371493371454665 -0.01157343980415256 0.9769946621584388 -0.20971462129865173 0 0 0 0
100547227 0.018662652219084114 -0.011451878394876013 0.9766980642975739 -0.21186885871337682 0 0 0 0
101541754 0.01907131376822564 -0.012421373893664829 0.97629165714914 -0.21416891654182874 0 0 0 0
102536281 0.019581589400948785 -0.012794676093367057 0.9751191103193249 -0.21606320329283782 0 0 0 0
103530808 0.019826339224768917 -0.01337613904732819 0.9746265051123476 -0.218084744801387 0 0 0 0
104525335 0.02039090419310022 -0.013796672580568997 0.9748833013559025 -0.22047271560999662 0 0 0 0
105519862 0.020806758790102377 -0.014224122998094576 0.9742993010581558 -0.2226687300238941 0 0 0 0
106514389 0.021309714075183214 -0.014922602358864941 0.9733881752342267 -0.22465462751526102 0 0 0 0
107508916 0.021679136408971345 -0.015410901556377088 0.9719719359671741 -0.22678725722045742 0 0 0 0
108503443 0.02221990032753573 -0.016204169114919963 0.9722866888125878 -0.22883765767335512 0 0 0 0
109497970 0.022674384413911692 -0.016725424939876065 0.9721500629005959 -0.23099798734773183 0 0 0 0
110492497 0.02308378191305492 -0.01709337299802654 0.9716175822433604 -0.23291021004366858 0 0 0 0
111487024 0.023535696019253382 -0.01775879328713843 0.9704460205537809 -0.23490481220121562 0 0 0 0
112481551 0.024034222998612187 -0.018473039223589127 0.9699462319477944 -0.23711842138656303 0 0 0 0
113476078 0.02444480762012425 -0.018871399284664078 0.9697665447042867 -0.23932108329795457 0 0 0 0
114470605 0.02475678996900591 -0.019661394756111485 0.9693747911779435 -0.24157968938558555 0 0 0 0
115465132 0.02503080096939855 -0.020270485537994615 0.9684218412900644 -0.2434804812462852 0 0 0 0
116459659 0.02518611684723644 -0.020822216240484318 0.967127654094883 -0.2454336996712845 0 0 0 0
117454186 0.02542077048765785 -0.021556801686557724 0.9673067337897604 -0.24776820976470004 0 0 0 0
118448713 0.026158034483838646 -0.0221543252373633 0.9668898072521036 -0.24993059479383797 0 0 0 0
119443240 0.026472123293179387 -0.022810514629747817 0.966155108327022 -0.25199518831213336 0 0 0 0
120437767 0.026968537693630935 -0.02367610864968206 0.9649521101964695 -0.2538898832581192 0 0 0 0
121432294 0.02729715562071595 -0.024324663289200354 0.9643566404169014 -0.2560339805930007 0 0 0 0
122426821 0.027500676430974796 -0.02511458183595752 0.9642748914586385 -0.25826317737539284 0 0 0 0
123421348 0.02797609820735367 -0.025794808456260445 0.9637992130460183 -0.26040958832041994 0 0 0 0
124415875 0.02832890488113496 -0.026710698041659504 0.962843396761286 -0.262517565144943 0 0 0 0
125410402 0.028599152281392464 -0.02742080869840899 0.9614230804776914 -0.2644508591631927 0 0 0 0
126404929 0.029049584032638156 -0.02798338057924417 0.9614162089577448 -0.26658389266365384 0 0 0 0
127399456 0.029189504738022037 -0.028929932820226243 0.9609663048050653 -0.268796220491172 0 0 0 0
128393983 0.029301017011084857 -0.029654870777189216 0.960212346145373 -0.27083847672215516 0 0 0 0
129388510 0.029525303568459515 -0.030494886040193483 0.9589706459083731 -0.2727218617566831 0 0 0 0
130383037 0.029974805549102916 -0.0313833460438301 0.9582089879174952 -0.2747855149775021 0 0 0 0
131377564 0.030285068920544906 -0.03227199506204735 0.9579391466734856 -0.27687460079632875 0 0 0 0
132372091 0.030757980982655586 -0.032802326772248154 0.9572939309884912 -0.2789965264827251 0 0 0 0
133366618 0.0306722130041569 -0.033778048893347436 0.9562729033217312 -0.28107378191817933 0 0 0 0
134361145 0.031022479010328948 -0.03479036799950718 0.9548070058689284 -0.2827134374614995 0 0 0 0
135355672 0.03132344678816845 -0.03560029907502832 0.9547754449268874 -0.2850876856813376 0 0 0 0
136350199 0.03147751266479764 -0.03639255354703437 0.9542981842091619 -0.2871999496876797 0 0 0 0
137344726 0.0316390698361442 -0.037368510676691884 0.9535481287980261 -0.28913641401648454 0 0 0 0
138339253 0.03185531206411412 -0.038274205564717605 0.9523992000242069 -0.291180155100881 0 0 0 0
139333780 0.031975508631010396 -0.03929731512978278 0.9514403088897931 -0.29310696331627234 0 0 0 0
140328307 0.03226163559112047 -0.040096535079145894 0.9512364133474139 -0.29513725308385064 0 0 0 0
141322834 0.03241710332906648 -0.04092612096404353 0.9504368459188767 -0.297280471013903 0 0 0 0
142317361 0.032411097003288904 -0.04213917363683074 0.949430939363085 -0.2990357575147101 0 0 0 0
143311888 0.032429313796614984 -0.04292900308896562 0.9477534908718666 -0.30083132311543487 0 0 0 0
144306415 0.032542793659308386 -0.04403889227236467 0.94767310153069 -0.3031094211708931 0 0 0 0
145300942 0.032684087676843644 -0.04500918786951967 0.9472678475870373 -0.30513384479528827 0 0 0 0
146295469 0.03278921706582339 -0.04593637060759359 0.9463777981148768 -0.3071902722782707 0 0 0 0
147289996 0.03268742403336056 -0.04662003888796903 0.9451019544486692 -0.3089786129888989 0 0 0 0
148284523 0.03285595451972763 -0.04768377936833603 0.9441828129261575 -0.31100578442090326 0 0 0 0
149279050 0.03247757110765345 -0.048728720912711944 0.9439069761769424 -0.3130470701767483 0 0 0 0
150273577 0.03253219075060957 -0.04998547923596047 0.9431514643766026 -0.31487218300915076 0 0 0 0
151268104 0.032652885130839936 -0.05071595674366459 0.9418365257053087 -0.31678597423656496 0 0 0 0
152262631 0.03236884562635766 -0.0517048416443989 0.9401733532635762 -0.31839612121862476 0 0 0 0
153257158 0.03240233378408443 -0.05268066201908496 0.9399891149393566 -0.32056111118590347 0 0 0 0
154251685 0.03236789602790328 -0.05389129067577205 0.9392822270282316 -0.3224585987129328 0 0 0 0
155246212 0.032049321433574335 -0.054858595473262765 0.9383857065354471 -0.32440242953636783 0 0 0 0
156240739 0.03205973643802968 -0.055830970095353254 0.9368134485273708 -0.32607632472417747 0 0 0 0
157235266 0.03203351123520021 -0.056779257831896225 0.9359984181116403 -0.3280686585624357 0 0 0 0
158229793 0.031822378409472205 -0.05800238208418193 0.9356052485804004 -0.3301311070224044 0 0 0 0
159224320 0.03168099552872419 -0.059106192070664684 0.9348595030398638 -0.3320212027638689 0 0 0 0
160218847 0.03187164921934898 -0.059878706483261955 0.9335338618478447 -0.3338192092907834 0 0 0 0
161213374 0.031488881272070945 -0.06101497061023941 0.9320067273665193 -0.3353918319830814 0 0 0 0
162207901 0.03116738290181166 -0.06208158707146107 0.9317111850486496 -0.3374159382529858 0 0 0 0
163202428 0.031122887730704367 -0.06307286254960671 0.9311036008089052 -0.33937936673301555 0 0 0 0
164196955 0.030416569762615527 -0.06405175879570582 0.9302110960225026 -0.34106493349043726 0 0 0 0
165191482 0.030435528281584055 -0.06500295693552256 0.9286856101571433 -0.34279920491301097 0 0 0 0
166186009 0.030013743907786144 -0.06602106609312575 0.9276591852463839 -0.34452651792109595 0 0 0 0
167180536 0.029475719092168225 -0.06703138612320322 0.927243346346338 -0.3467543727978635 0 0 0 0
168175063 0.029237213924470495 -0.06829210518748961 0.9265351614616831 -0.34858814181412606 0 0 0 0
169169590 0.028778126918211036 -0.06965148140464264 0.9251911223026543 -0.35006238461859257 0 0 0 0
170164117 0.028630568954577048 -0.07070547027099228 0.9235165269238859 -0.351686613468228 0 0 0 0
171158644 0.027972372463330116 -0.07189008741848651 0.9231435654422613 -0.3536436357670889 0 0 0 0
172153171 0.027571569672683056 -0.07277134641175108 0.9226696668578885 -0.35553511795891796 0 0 0 0
173147698 0.027085447039360135 -0.07360299660512935 0.9217175397434768 -0.3573184079013715 0 0 0 0
174142225 0.02636800532073273 -0.07480758167213296 0.9202148954973817 -0.35895161340458565 0 0 0 0
175136752 0.026149370332802947 -0.07582291462603263 0.9193681142760128 -0.36062995989888486 0 0 0 0
176131279 0.025512524608014484 -0.07682453742713607 0.9189424135970881 -0.362476738013341 0 0 0 0
177125806 0.02509517908490499 -0.07802857762705395 0.9181487089033638 -0.3641678850495299 0 0 0 0
178120333 0.024380649428424352 -0.07898068071366991 0.9170294727144226 -0.36596131701065227 0 0 0 0
179114860 0.02361929553238888 -0.08015830256848064 0.9155200525993462 -0.36726714530103033 0 0 0 0
180109387 0.023105506792512345 -0.08106885332270626 0.9149986065078697 -0.36919357938196623 0 0 0 0
181103914 0.022734630104695328 -0.08205902989568761 0.9144720700712974 -0.3710647960376659 0 0 0 0
182098441 0.022120213219972536 -0.0830652123994591 0.9133132872592626 -0.37258042090430404 0 0 0 0
183092968 0.021639391837268655 -0.0837903377805489 0.9117026501197573 -0.37411114179385807 0 0 0 0
184087495 0.02080897624978435 -0.08488539943037979 0.911093661270981 -0.3758930405350477 0 0 0 0
185082022 0.020144090764445337 -0.08585040044851679 0.9105485048174382 -0.3777676193663793 0 0 0 0
186076549 0.01936678105147191 -0.08689890691102989 0.9097917370734313 -0.3796808547407329 0 0 0 0
187071076 0.018504492137578838 -0.08791081423879875 0.9087153104084709 -0.3811001060555218 0 0 0 0
188065603 0.018013138237607553 -0.08878781563803179 0.9070317366460967 -0.38245338736588935 0 0 0 0
189060130 0.016739089721886688 -0.08985013479287442 0.9069193406908259 -0.3844632268506232 0 0 0 0
190054657 0.015716259751982355 -0.0910583003674029 0.9064245892522892 -0.38611402754580004 0 0 0 0
191049184 0.014818464626996227 -0.09223097090669566 0.9052532610798748 -0.387776974051658 0 0 0 0
192043711 0.013673185568945137 -0.09308737675679792 0.9039579517223745 -0.3892204514581097 0 0 0 0
193038238 0.012722438936863548 -0.09407514266914614 0.9029421514324951 -0.39093117308110303 0 0 0 0
194032765 0.01180239760014134 -0.09459228470906154 0.9026541901762482 -0.3927689714909877 0 0 0 0
195027292 0.010838535763996194 -0.09520881545085262 0.902077813773764 -0.3944727384370706 0 0 0 0
196021819 0.009715785787448817 -0.0956485717423416 0.9010209600897979 -0.39596366410094663 0 0 0 0
197016346 0.009015603713991448 -0.09593090966685056 0.899462170105793 -0.3972671003959611 0 0 0 0
198010873 0.007753198734063115 -0.09713344731125245 0.899077845526072 -0.3991531599449038 0 0 0 0
