# HZ S RI R 50
100000 0.9991663758996973 -0.0006431966412572496 9.097620278151492e-06 -2.4885872852623367e-05 0 0 0 0
1094527 0.9994134252071967 -0.0037858454823553114 -4.319019147899523e-06 0.00015623122936202406 0 0 0 0
2089054 0.9997122796919303 -0.004961750029957718 8.979742722600996e-06 0.0002624572784748161 0 0 0 0
3083581 0.9994713413846084 -0.006156611968411539 -6.296533799008172e-06 0.00041844024627487035 0 0 0 0
4078108 0.9991736763568371 -0.007512990361305893 -1.7054759996375575e-05 0.0005247713395660548 0 0 0 0
5072635 0.999102239250818 -0.008433737088319062 1.0451729149245296e-05 0.0007171533077477943 0 0 0 0
6067162 0.9993841330539509 -0.009737460492577895 3.065950884722188e-05 0.00087291820018858 0 0 0 0
7061689 1.000989085737174 -0.011499977898895654 5.850550070085654e-06 0.0009500259887263737 0 0 0 0
8056216 0.9997389445669739 -0.013537811592164982 8.579144647618628e-06 0.0011487301477476728 0 0 0 0
9050743 0.9987812786114311 -0.015199625645621898 3.436749456854596e-05 0.0012613925964595509 0 0 0 0
10045270 0.9991426267221832 -0.01692512707103733 2.7652453293319623e-05 0.0014026444547638704 0 0 0 0
11039797 0.9992528619450127 -0.01848001706486311 3.22570621779095e-05 0.0015238553243107722 0 0 0 0
12034324 0.9991004725197205 -0.02003977191180928 3.1735863649473e-05 0.001661475054239949 0 0 0 0
13028851 0.9986070024134479 -0.02171706573135815 4.855201080696547e-05 0.001805412346104214 0 0 0 0
14023378 0.9985616312218086 -0.023282639033591845 6.128337607081112e-05 0.0019490721669517745 0 0 0 0
15017905 0.998838531356029 -0.02512938705722791 8.718371139059226e-05 0.00209531830476855 0 0 0 0
16012432 0.9992017112519542 -0.026661254111610275 9.755145782012514e-05 0.0021988525789163028 0 0 0 0
17006959 0.9987056371512049 -0.028208288867743393 0.00010710049694813455 0.0022950414051052023 0 0 0 0
18001486 0.9979835762452252 -0.02988406230212451 0.00013188259058448536 0.0024839526505435407 0 0 0 0
18996013 0.9985238022492157 -0.03151648269053322 0.00014892004656806739 0.002576338813402267 0 0 0 0
19990540 0.9988328370984044 -0.03309475432273472 0.00017677922279941052 0.002764551559264399 0 0 0 0
20985067 0.9988123045132306 -0.03476508184614207 0.00016161868441003986 0.0029089818694354235 0 0 0 0
21979594 0.9982736678771027 -0.03644520107074451 0.0002001876844866458 0.0030436167991662695 0 0 0 0
22974121 0.9982090320783958 -0.03787249328494915 0.0002235074860178677 0.003189822974524139 0 0 0 0
23968648 0.9986841332053262 -0.03969014245141976 0.00022413818215784252 0.0032868820910324377 0 0 0 0
24963175 0.99866335606605 -0.04119918471249818 0.0002664484137825856 0.0034268556459767416 0 0 0 0
25957702 0.9982094278435407 -0.04283062290010119 0.00027257376744319213 0.003559426765851573 0 0 0 0
26952229 0.9975761816044869 -0.044346230773520325 0.0002890643243791882 0.003674436438324622 0 0 0 0
27946756 0.9980604750036268 -0.04611104778470272 0.0002692727591326911 0.0037949578141694535 0 0 0 0
28941283 0.9982384611262387 -0.04770157739789104 0.00028552191438931964 0.003975425890008846 0 0 0 0
29935810 0.9980678154613561 -0.049341140951570106 0.00034411071042801065 0.00408065317956944 0 0 0 0
30930337 0.9975067117028441 -0.05077483716567667 0.00034084425721368745 0.004222049255103634 0 0 0 0
31924864 0.9974476450562577 -0.05239515842529663 0.00035460542017353683 0.004389209333154907 0 0 0 0
32919391 0.9978123159724841 -0.054112912397260245 0.00038251333464414645 0.004529608410901877 0 0 0 0
33913918 0.9978355000992718 -0.055500913227472304 0.0004106780769073502 0.004663861201981002 0 0 0 0
34908445 0.9972622953032064 -0.05721904476644792 0.00044737354314220275 0.004792339447124862 0 0 0 0
35902972 0.9966750699790133 -0.05896117752304782 0.00043065959824948956 0.00491317319594192 0 0 0 0
36897499 0.9971885494590337 -0.06070200476218389 0.0004740931610335405 0.0050955749335816515 0 0 0 0
37892026 0.9973613944751266 -0.06224323758378705 0.0004917620602105472 0.005187761611701499 0 0 0 0
38886553 0.9971274008125823 -0.06389601414822817 0.0005483034073985859 0.005360735749713207 0 0 0 0
39881080 0.9965095077863143 -0.06550764836846312 0.0005600003850836777 0.0054911216850309676 0 0 0 0
40875607 0.9963793871576311 -0.06723458929042303 0.000636605654892901 0.005603557444849932 0 0 0 0
41870134 0.996791405617578 -0.06878386612842782 0.0006535509158270556 0.005765436061469709 0 0 0 0
42864661 0.996991450611534 -0.07012150266215975 0.00066354101014056 0.00589300781251135 0 0 0 0
43859188 0.9964375452356835 -0.07199294687361303 0.0006781527356473834 0.006052308350032463 0 0 0 0
44853715 0.9955779951882487 -0.07356020110718915 0.0007119026465806433 0.0062294478827706595 0 0 0 0
45848242 0.9960434929746793 -0.07523156269790775 0.0007513990294899304 0.006342431238315346 0 0 0 0
46842769 0.9961709942286691 -0.07676982629121708 0.0008045443858436483 0.006506161195527816 0 0 0 0
47837296 0.996168971598216 -0.07839767533565636 0.0007873774764785883 0.006644025186386845 0 0 0 0
48831823 0.9954947898985511 -0.07974796686244198 0.0008436825795909152 0.006803787406294425 0 0 0 0
49826350 0.9951897206694036 -0.08158914035934191 0.0008760800069008671 0.006928603583267237 0 0 0 0
50820877 0.9954883016305087 -0.08330132655579078 0.0008629189357613855 0.007092353922669989 0 0 0 0
51815404 0.9955729182192282 -0.08506517976789531 0.0009029126613050769 0.0072199925839869636 0 0 0 0
52809931 0.9952444035282485 -0.08673553773890713 0.0009481686863367432 0.0073920902806411245 0 0 0 0
53804458 0.994520159704605 -0.08830095203062878 0.0009522967733935872 0.007465922231007409 0 0 0 0
54798985 0.9947504049351787 -0.09020486319839703 0.0009771838385293505 0.007679375676735201 0 0 0 0
55793512 0.9948467301762969 -0.0915774087262306 0.0011075980881412987 0.007827193515872454 0 0 0 0
56788039 0.9947405276897895 -0.09327330365516596 0.0011162690979657996 0.007947333237334387 0 0 0 0
57782566 0.9940467751392065 -0.09472779222436896 0.0012389411428747794 0.008095247667525332 0 0 0 0
58777093 0.9939927307467432 -0.09636309533537041 0.001286894645412149 0.008249501967756302 0 0 0 0
59771620 0.9941072576333725 -0.0981121388221413 0.0013286434310704328 0.008368756906345393 0 0 0 0
60766147 0.9943101630741075 -0.09991968064888773 0.0013457422949408244 0.008550328981277179 0 0 0 0
61760674 0.9936581785388078 -0.10154434168552949 0.0013947204665223315 0.00866976511423936 0 0 0 0
62755201 0.9927043529113215 -0.1028232817498461 0.0014310763059903807 0.0088163814212279 0 0 0 0
63749728 0.9932343706565947 -0.10457980912098964 0.0015073532142749842 0.008943174956334437 0 0 0 0
64744255 0.9933071899352512 -0.1062782809410336 0.0015741190095923461 0.009105185890965078 0 0 0 0
65738782 0.9931915534639842 -0.10788726108685585 0.001652170501858958 0.009269301245561653 0 0 0 0
66733309 0.9928325657864826 -0.10949217387005959 0.001727675132048391 0.009414320285582681 0 0 0 0
67727836 0.9925398000947676 -0.11108613676230292 0.001821105397430179 0.009568723214008378 0 0 0 0
68722363 0.992652282910549 -0.11259841528601996 0.0018235433083134335 0.009735021134984792 0 0 0 0
69716890 0.992572433369243 -0.11394797742924295 0.0018998518571236517 0.009894938255432091 0 0 0 0
70711417 0.9925148656957031 -0.11594402948429391 0.001994173764503387 0.010058151731395805 0 0 0 0
71705944 0.9915636742401808 -0.11748849557728906 0.002054830180050937 0.010177657296429794 0 0 0 0
72700471 0.9920593995851582 -0.11932337611079993 0.002104767280294839 0.01032234412769069 0 0 0 0
73694998 0.992001590173445 -0.1209042987037956 0.002155876604400759 0.010495742457596314 0 0 0 0
74689525 0.9917315520400578 -0.1224945464160149 0.002204152489177614 0.010649766474635006 0 0 0 0
75684052 0.9910247990518946 -0.12446481114081012 0.0022638721534885375 0.010754827044465521 0 0 0 0
76678579 0.9907488076117263 -0.1261393205328473 0.0023194671455521007 0.010902708516361319 0 0 0 0
77673106 0.9911065002440257 -0.12775782023335672 0.0024349285532332425 0.011072738015459037 0 0 0 0
78667633 0.9910475010371548 -0.12919995909675855 0.002475194651243799 0.011189608661167902 0 0 0 0
79662160 0.9907446015994262 -0.13056200896827588 0.002596382425559412 0.011306464458416071 0 0 0 0
80656687 0.9895817592107531 -0.1321807744421417 0.0026662693055661507 0.011454390962745087 0 0 0 0
81651214 0.9901473767800402 -0.13417298606286537 0.002763935403515249 0.011567110609649807 0 0 0 0
82645741 0.9902352990773334 -0.13570699212663773 0.0028657199659199114 0.01175398844727919 0 0 0 0
83640268 0.9899002045478067 -0.13725706984721744 0.002900467789899644 0.011864848145037755 0 0 0 0
84634795 0.9889841259766143 -0.1389061158048517 0.0029598580469976 0.011986171150861286 0 0 0 0
85629322 0.9890875457474022 -0.14064702108885582 0.003052850711056884 0.012137796173808448 0 0 0 0
86623849 0.9891117954334824 -0.14241989396247515 0.0031307537332786206 0.012271775922428174 0 0 0 0
87618376 0.9892294255057861 -0.14400840291563888 0.003238458210990529 0.012441061841696884 0 0 0 0
88612903 0.9887095348231221 -0.14562028618804745 0.0033137400543540294 0.012574976257838263 0 0 0 0
89607430 0.987735767087792 -0.1470101169165514 0.0033936984032962012 0.01269752245874431 0 0 0 0
90601957 0.9880359890017717 -0.14891756585342505 0.003463031432168976 0.012792357179265022 0 0 0 0
91596484 0.9880473031812814 -0.1506509505410711 0.0035543004128940803 0.012986608334949284 0 0 0 0
92591011 0.9874361307993075 -0.1523587526417198 0.0036447997185988846 0.01311249750481792 0 0 0 0
93585538 0.9869705221495213 -0.15411704953543084 0.0037248516667734008 0.013282181503068329 0 0 0 0
94580065 0.9865030897899616 -0.15577319834219103 0.003792507750415395 0.013359736637133829 0 0 0 0
95574592 0.9866779845900668 -0.15749473822058835 0.003932401044134413 0.013512156817219312 0 0 0 0
96569119 0.9866706667067686 -0.15901969315360476 0.004039736154269804 0.013631164866882609 0 0 0 0
97563646 0.9860415375300708 -0.16075667608555824 0.004145929228255962 0.0137624470368074 0 0 0 0
98558173 0.9851038304146978 -0.162200782269031 0.004259750259214571 0.013852459258777886 0 0 0 0
99552700 0.9855064903703779 -0.16386975367558135 0.004371044646168321 0.01402064169436579 0 0 0 0
100547227 0.9860270527162114 -0.1650819269061881 0.004593294572481872 0.014122181025050374 0 0 0 0
101541754 0.9853968313623774 -0.1666790997789053 0.0046086211222060745 0.014337786303141862 0 0 0 0
102536281 0.9848377825423753 -0.16831971784728855 0.004751574509150027 0.01444308848215766 0 0 0 0
103530808 0.9843675897368788 -0.17011743454299352 0.004812912336138556 0.014559618132391459 0 0 0 0
104525335 0.9844202512474964 -0.17198993321341183 0.004942277800735632 0.01469428852425344 0 0 0 0
105519862 0.9844560161040465 -0.17369297696638328 0.005059323813639363 0.01482401940920122 0 0 0 0
106514389 0.9836000108190011 -0.1755031144739622 0.005141155183785917 0.014942064421102503 0 0 0 0
107508916 0.9830694066374389 -0.17704032670213335 0.005239827258713222 0.015082174016458994 0 0 0 0
108503443 0.9832087734265739 -0.1789290446538842 0.005368796117232893 0.015198222443890326 0 0 0 0
109497970 0.98316120581674 -0.1806354206801397 0.005519076746431694 0.015285376346905197 0 0 0 0
110492497 0.9826816962361945 -0.18213869500745944 0.005656596597577307 0.015444409058069382 0 0 0 0
111487024 0.9819543443110769 -0.18386067940980033 0.0057591995803889335 0.015554418792094696 0 0 0 0
112481551 0.9818079223113975 -0.1855186675848592 0.005935260086017742 0.015720481386737577 0 0 0 0
113476078 0.9819102512376868 -0.1874152771946609 0.00600754731622349 0.015864802278478893 0 0 0 0
114470605 0.9815448669775797 -0.1889572917928745 0.0061934301842624245 0.01596564007134652 0 0 0 0
115465132 0.9811975494500498 -0.19101429748142285 0.006228454597693281 0.016095982641407745 0 0 0 0
116459659 0.9802783237979142 -0.19270973603898145 0.00638374486381241 0.016215614549708737 0 0 0 0
117454186 0.9804535458205488 -0.19434697863733066 0.006524433645115263 0.0163520282172548 0 0 0 0
118448713 0.9804980908894736 -0.19600812401206266 0.006702007162354151 0.016450763665723647 0 0 0 0
119443240 0.980146891605719 -0.19777119495105097 0.006832826920608578 0.016572575136373894 0 0 0 0
120437767 0.9794420707732492 -0.19940941611545723 0.0069817575025889365 0.016678164971344223 0 0 0 0
121432294 0.9789532934454733 -0.20117622097693136 0.007126157806203065 0.016762406451291408 0 0 0 0
122426821 0.9792526503856449 -0.2030734546710642 0.007228750959675585 0.016883432556195836 0 0 0 0
123421348 0.9789712157379216 -0.2048291886329494 0.007373235475687129 0.016985132527787813 0 0 0 0
124415875 0.9783031396065187 -0.20635358723058486 0.0075096485408723225 0.017025124862028698 0 0 0 0
125410402 0.977231098513247 -0.20803756679007493 0.007614001243516854 0.017109243727548858 0 0 0 0
126404929 0.9777323521286886 -0.20991535708035974 0.0077752864458286546 0.017243473777420106 0 0 0 0
127399456 0.9775193503887405 -0.21168198354034615 0.007979418761149297 0.017331775698092338 0 0 0 0
128393983 0.9773110238235871 -0.2132089566445223 0.008095772882921466 0.017501774151935816 0 0 0 0
129388510 0.9764330342806481 -0.21479663786182832 0.008257107143281319 0.017600534409048768 0 0 0 0
130383037 0.9759463914641613 -0.21658569504015376 0.008398090075599393 0.01768875442587486 0 0 0 0
131377564 0.97623124137828 -0.2183737441907339 0.008553694129158115 0.017776862536708755 0 0 0 0
132372091 0.9759803163867873 -0.22028552870493925 0.008734467672294294 0.01787635441271541 0 0 0 0
133366618 0.9754432973914163 -0.22194764032000103 0.008895056631099307 0.01794414468054818 0 0 0 0
134361145 0.9743019206159489 -0.22344804088281484 0.00906283671550198 0.01800398567953661 0 0 0 0
135355672 0.9746681729787392 -0.22535932260778838 0.009212808044842067 0.01812381197213096 0 0 0 0
136350199 0.9745711898584575 -0.2271326773517694 0.009363300094840626 0.0182121380252156 0 0 0 0
137344726 0.9738812955030292 -0.2287168433181734 0.009497714989720171 0.01829399954010668 0 0 0 0
138339253 0.9732305824621686 -0.23033357884268607 0.009625415227100538 0.018389655012501737 0 0 0 0
139333780 0.9728302165285568 -0.23205740230673455 0.009730343781172091 0.018486195737029785 0 0 0 0
140328307 0.9727933045278722 -0.233971545110504 0.009924351753161907 0.018571003697919884 0 0 0 0
141322834 0.9726968866040021 -0.23550044020880187 0.010042571067179887 0.018630958949716295 0 0 0 0
142317361 0.9722228386165507 -0.2374268111733092 0.010224953742664076 0.018700365528267926 0 0 0 0
143311888 0.9711977644243159 -0.23894256265398017 0.010377271917694171 0.018747703124442433 0 0 0 0
144306415 0.9713450924842341 -0.24089277094447303 0.010553989144561925 0.018824254839084974 0 0 0 0
145300942 0.9713480791813314 -0.2426393556866358 0.010726648770160349 0.018909639404834973 0 0 0 0
146295469 0.9707203970465598 -0.24415171354642182 0.010838330203238433 0.01896498909273451 0 0 0 0
147289996 0.969735392234784 -0.24569723868140228 0.010978804711380947 0.01896608091237433 0 0 0 0
148284523 0.9693024476659434 -0.24727411427789248 0.011172739517744697 0.019109167439121416 0 0 0 0
149279050 0.9693715468050197 -0.2492323240674127 0.011290947154792555 0.019171261202867787 0 0 0 0
150273577 0.9691678910396394 -0.25119727934688496 0.011454746576494482 0.01920403771680527 0 0 0 0
151268104 0.9685942763497191 -0.2526356214711604 0.011617083797922173 0.01922830961881779 0 0 0 0
152262631 0.9677112815305224 -0.2543368095196478 0.01175495092067253 0.019335505581744357 0 0 0 0
153257158 0.9674610831253121 -0.2561319744011918 0.011963085418205335 0.019423855260610506 0 0 0 0
154251685 0.9675077807348252 -0.2580876286396949 0.012135450927269554 0.019436857246349724 0 0 0 0
155246212 0.9670519418573713 -0.25953689883951075 0.012277070785965793 0.019578605861994558 0 0 0 0
156240739 0.9661650860163185 -0.26129927701335104 0.012411475818095694 0.019607849155479414 0 0 0 0
157235266 0.9656171726224227 -0.2627807388637851 0.012627960546290682 0.019647753203144967 0 0 0 0
158229793 0.965756031050471 -0.2645950493810837 0.012796653105532473 0.019696443499835892 0 0 0 0
159224320 0.9653600394229378 -0.2663194974564556 0.012992767494508749 0.019778349402919674 0 0 0 0
160218847 0.9646912091469914 -0.2680537269526623 0.013145967200974462 0.01985666565864964 0 0 0 0
161213374 0.9634440707118928 -0.26928602589940337 0.013289858156632934 0.01988745402677797 0 0 0 0
162207901 0.9639014297450418 -0.27115391266975564 0.01347520074609751 0.01991586676762309 0 0 0 0
163202428 0.963438944857902 -0.27288440819703846 0.013653006885237138 0.01994625386997141 0 0 0 0
164196955 0.963029812984936 -0.27467357423930844 0.013791939136352583 0.01999188122009366 0 0 0 0
165191482 0.9621541362892835 -0.2765159786926465 0.013928700057158221 0.020004693165720698 0 0 0 0
166186009 0.9616362679122571 -0.27801924912678294 0.014107831624974204 0.020018065622769372 0 0 0 0
167180536 0.9618240312942186 -0.2800424742999356 0.01427356186479266 0.020104568819796907 0 0 0 0
168175063 0.9614977870560294 -0.2816560457579613 0.014411586707991017 0.020153232609645053 0 0 0 0
169169590 0.9608115183953843 -0.2835956857907271 0.014546447914046967 0.020200499137790647 0 0 0 0
170164117 0.9598365555333743 -0.2852947947144616 0.014678292498039654 0.02030275400940936 0 0 0 0
171158644 0.9597951274816736 -0.2869199598930698 0.014801827875211044 0.02028475276726911 0 0 0 0
172153171 0.9597028175498657 -0.2888982418958474 0.015006521755870885 0.020284424123629158 0 0 0 0
173147698 0.95898144563975 -0.29016585309237763 0.015147012403612712 0.020290573287244158 0 0 0 0
174142225 0.9579974953945294 -0.2920179978738682 0.015273044532420517 0.020261891293701904 0 0 0 0
175136752 0.9576335391282815 -0.2932888830514386 0.015445416474886427 0.020249510908543086 0 0 0 0
176131279 0.9577112553786482 -0.29536085223835457 0.015566770703596997 0.020312430286496243 0 0 0 0
177125806 0.9577202494180853 -0.29705465396769076 0.01573687981141362 0.020331760601962953 0 0 0 0
178120333 0.9567672980594056 -0.29873394897495925 0.015821588606101306 0.020338466500512034 0 0 0 0
179114860 0.955739774336942 -0.3002686817468044 0.015903660673809928 0.020352242358015714 0 0 0 0
180109387 0.9555983858897636 -0.3021959415828 0.01610338460964599 0.020354865439214862 0 0 0 0
181103914 0.9557733738400929 -0.304093491347317 0.0163119195612163 0.020419434047302055 0 0 0 0
182098441 0.9552996224605376 -0.30581529336565827 0.016450351822391945 0.02046305464382224 0 0 0 0
183092968 0.9544066788184208 -0.30744436842728534 0.016577226952611365 0.020487879167023104 0 0 0 0
184087495 0.9537877537674917 -0.3091708743313261 0.016770588835393178 0.020473493067830684 0 0 0 0
185082022 0.9538939541649305 -0.311296074128021 0.016957545486803626 0.020476469999675687 0 0 0 0
186076549 0.9534058596737623 -0.31280343904555363 0.01707061195319161 0.020463431454722732 0 0 0 0
187071076 0.9527705448955397 -0.31448423100525813 0.01721276339557455 0.02043026834885673 0 0 0 0
188065603 0.9511761738942817 -0.31600523561497357 0.01735856952092368 0.020379366367385496 0 0 0 0
189060130 0.9514538749798515 -0.3176609339167854 0.017462634885073835 0.020442716357994523 0 0 0 0
190054657 0.9512688715985359 -0.31981028343456347 0.017616430675796366 0.020464532415483083 0 0 0 0
191049184 0.9504918519487133 -0.32158842024996936 0.017725769735241342 0.020456126780176002 0 0 0 0
192043711 0.9496543033199064 -0.32359954413562914 0.0178353894159429 0.020467588287623323 0 0 0 0
193038238 0.949096963727912 -0.32514217433367315 0.017986420634343987 0.02045450750398414 0 0 0 0
194032765 0.94868004191117 -0.3268421422322731 0.01813836230793363 0.020549065650697158 0 0 0 0
195027292 0.9481238793465421 -0.3287858778695382 0.018274853889265127 0.020553660890708 0 0 0 0
196021819 0.9471483253823783 -0.3295391053881635 0.018394319051691452 0.020535692785210696 0 0 0 0
197016346 0.9455573926719529 -0.3311519428035018 0.01851016087273953 0.020519505954127385 0 0 0 0
198010873 0.9456952685061297 -0.33327183223615536 0.01860107666317777 0.02056624576124994 0 0 0 0
199005400 0.9457654501828087 -0.3349072362796718 0.018779885430766863 0.020532166911518938 0 0 0 0
