# HZ S RI R 50
10000000 -0.030700428145775817 -0.017329267615995243
10223325 -0.03178180453393775 -0.015473642852284007
10446650 -0.03238868496483922 -0.01414964084066978
10669975 -0.03286017830773272 -0.012409973655332886
10893300 -0.03281941152577482 -0.010865352374429076
11116625 -0.03331452955426164 -0.009109764008467509
11339950 -0.03331155037652486 -0.007477994386468635
11563275 -0.03321579510444784 -0.0054182728256432075
11786600 -0.03322230810451223 -0.0040568330417453365
12009925 -0.03303063404859599 -0.002208788900994948
12233250 -0.03256163924740906 -0.0005878889693254753
12456575 -0.032223471514873925 0.001070975691535079
12679900 -0.031077331106560635 0.0027850039764255553
12903225 -0.03052585909040937 0.003964223794749053
13126550 -0.029999836527203776 0.005478550369235777
13349875 -0.02905907227231001 0.006826411636530259
13573200 -0.028009858849145326 0.007804103463290004
13796525 -0.0268424381350819 0.009275684246434966
14019850 -0.025596652986894283 0.010340286700452048
14243175 -0.02396929456618791 0.011226130927729151
14466500 -0.02297460874844409 0.012249526508585918
14689825 -0.021630825247720642 0.013104211653079123
14913150 -0.02013161246298847 0.013508835115533925
15136475 -0.018690374183572604 0.014115491233025228
15359800 -0.017307193384917964 0.014614736851643322
15583125 -0.015751723365096556 0.014736621314608084
15806450 -0.014121702507263474 0.015039682016020151
16029775 -0.012117944506366466 0.01549894656779276
16253100 -0.01080500422354674 0.015279292421977385
16476425 -0.009289098444788837 0.015026794142092409
16699750 -0.00773408491919464 0.014816190994490714
16923075 -0.006114685020873762 0.014397232713933998
17146400 -0.0046595372013109575 0.013985838109242319
17369725 -0.003146334963216976 0.013334971295791103
17593050 -0.0016851335930471022 0.012343642832986378
17816375 -0.0004310601835701482 0.01156264521326353
18039700 0.0010384673332672584 0.010661013328300923
18263025 0.0021628560271512377 0.009620516446192032
18486350 0.0033703843185171017 0.008399302114396223
18709675 0.004553835233280935 0.007398561968491758
18933000 0.004974034148350687 0.006181274324017186
19156325 0.0063656958924755425 0.005218253012702912
19379650 0.006685144505001621 0.0033572794663421688
19602975 0.007589584269290104 0.0017738734813510417
19826300 0.008228101889604648 0.00047640208219185034
20049625 0.00841092851037439 -0.001075051494084433
20272950 0.008888109779339026 -0.002626398111955149
20496275 0.008962511905416474 -0.0047478426948107805
20719600 0.009191784283189385 -0.006100517747342287
20942925 0.009314284518274827 -0.008022581293339059
21166250 0.009186653669746725 -0.009320396180933074
21389575 0.008750671549041283 -0.011181520791894222
21612900 0.008284545605438376 -0.012575441118079522
21836225 0.007961484790489335 -0.014163135323084714
22059550 0.007538197025393787 -0.01578091421407053
22282875 0.006289320094139427 -0.017208181930992463
22506200 0.005599666029925411 -0.018989208860890706
22729525 0.00466288536127914 -0.01993877979785407
22952850 0.003504425903617611 -0.02116228179680948
23176175 0.0025113805890523604 -0.022713284876305858
23399500 0.001536989996790884 -0.02412349676814835
23622825 4.9097149463572914e-05 -0.02519509832075274
23846150 -0.0014242473056579423 -0.025727032480243148
24069475 -0.002974692830605444 -0.02685206295686825
24292800 -0.0045530451018697465 -0.027664103492124788
24516125 -0.005971161880049166 -0.028450193088628943
24739450 -0.00749144159290175 -0.02917096784825589
24962775 -0.009020822973922007 -0.029755974113243787
25186100 -0.010653567469671894 -0.029661387338252184
25409425 -0.012563848890282874 -0.030141662547680845
25632750 -0.01427439643662706 -0.029989826055724977
25856075 -0.016293718568405214 -0.030557154082357648
26079400 -0.01813018286769144 -0.030016232453365852
26302725 -0.019675106208143587 -0.030005109515479165
26526050 -0.021391066172532624 -0.029781525657468836
26749375 -0.023226419545765205 -0.0288883517799586
26972700 -0.024799232900165932 -0.028542675161365466
27196025 -0.026250138192197896 -0.0276663438915626
27419350 -0.028004453907098478 -0.026770543847002976
27642675 -0.02953092821322307 -0.026119206413686813
27866000 -0.030880689985049496 -0.0250042509493908
28089325 -0.032395631309445505 -0.023722233229958666
28312650 -0.033661636680666594 -0.02264886133694483
28535975 -0.034872275887964516 -0.021335302509060898
28759300 -0.036131375544573484 -0.020097268493936008
28982625 -0.03689836968952477 -0.018484998173705438
29205950 -0.03811513507166883 -0.016703678196157732
29429275 -0.03871036773631462 -0.015543661827752013
29652600 -0.039686860499726466 -0.01369081705821286
29875925 -0.04017340631650421 -0.012062997218904165
30099250 -0.0403333006029584 -0.010384516368027794
30322575 -0.04085897090384847 -0.008340803454461882
30545900 -0.04092881733197424 -0.007077037315676121
30769225 -0.040909603028884065 -0.00500429339277161
30992550 -0.04143740075934583 -0.0032543958702847256
31215875 -0.04127425454938016 -0.0016369904338174688
31439200 -0.04101067034836868 0.000572979038884606
31662525 -0.0406950157888192 0.001912408937111107
31885850 -0.04020092054421772 0.003537137348325835
32109175 -0.03973518867316478 0.0056928172587907425
32332500 -0.0389091010596393 0.0068064114991602
32555825 -0.03846463456063025 0.008578265833155416
32779150 -0.036969962374176164 0.010160953207370937
33002475 -0.0360664561145106 0.011556340992275484
33225800 -0.035287675839723434 0.012898554815569823
33449125 -0.03391082717489911 0.014387408962149446
33672450 -0.03266073774317342 0.015511643556249557
33895775 -0.03114790086799376 0.016344620026774337
34119100 -0.029951748647262615 0.017718303857940765
34342425 -0.028179821838489424 0.018669598659704766
34565750 -0.026599957909037044 0.01923019105070133
34789075 -0.02507040532611848 0.020058280727116313
35012400 -0.023505019751491576 0.020719217200211682
35235725 -0.021883916908651917 0.02086999202131868
35459050 -0.020094449598851385 0.021370478743978932
35682375 -0.018135455482414575 0.02171749536633663
35905700 -0.016911803546482047 0.02174416293882327
36129025 -0.01501301848074198 0.02154534447268142
36352350 -0.013266264821634684 0.02166023036099579
36575675 -0.011471849993712367 0.021475278561285435
36799000 -0.009641624112868483 0.02109527066836682
37022325 -0.008279294991535159 0.02062241183749883
37245650 -0.006584560809912414 0.019698955245588453
37468975 -0.005255097742977743 0.019103663340884768
37692300 -0.0033519407124518487 0.018452550610464323
37915625 -0.001980908901251525 0.017407763123096234
38138950 -0.0008540431285578565 0.016234589218266218
38362275 0.0006206097328637363 0.015230025627512862
38585600 0.001753724112096568 0.014174974823929475
38808925 0.003264146547505632 0.01314133676863864
39032250 0.0037935785702094688 0.011868681130908743
39255575 0.004815648950284828 0.010358230547935951
39478900 0.005425029773305502 0.008747618872338138
39702225 0.006242133383497681 0.007222516535403539
39925550 0.007156199225856288 0.006215239753935627
40148875 0.007500291857701947 0.004227854962074647
40372200 0.007931410552491285 0.0025072310045012713
40595525 0.008069336292637477 0.0007995637290815845
40818850 0.008423073418646771 -0.0007897979891165158
41042175 0.008214711431739066 -0.0026107316212394312
41265500 0.008178923782086485 -0.0036413268723250454
41488825 0.007952209446999316 -0.005627918685451641
41712150 0.007554632258138749 -0.007199099644930973
41935475 0.007452902971841141 -0.008638120631847074
42158800 0.006562657801466732 -0.01050617125587034
42382125 0.006079118152991512 -0.011945612381064407
42605450 0.005056145913178287 -0.013096958679981199
42828775 0.004415158922093331 -0.01481237739496813
43052100 0.0036649333895739556 -0.01569346337117861
43275425 0.0026106050894088503 -0.016947704175033374
43498750 0.00123332244263677 -0.018450943931528515
43722075 0.0006201915093672509 -0.01944646202961599
43945400 -0.0011838682468927617 -0.020235969916672054
44168725 -0.002404915445462412 -0.021013898441468653
44392050 -0.003982519345243131 -0.022067071102626935
44615375 -0.005020183348526401 -0.022411239512755476
44838700 -0.006613248003894337 -0.023156074044690854
45062025 -0.008451532008913803 -0.02347278764319674
45285350 -0.009647323473735784 -0.024192878573047517
45508675 -0.011145928191409188 -0.024441683148057225
45732000 -0.012989246511750705 -0.02453822023945708
45955325 -0.014305462734634776 -0.024431758483067986
46178650 -0.01603913894774637 -0.024339477453043695
46401975 -0.017719046970932874 -0.023761126225783212
46625300 -0.019450296628096615 -0.02354849764927718
46848625 -0.020520306378606426 -0.023271777627460716
47071950 -0.02224173649501519 -0.022607063535678228
47295275 -0.023455107952059642 -0.022042824607709347
47518600 -0.025069106521297048 -0.021251395175866584
47741925 -0.026336209955026318 -0.020214388468754882
47965250 -0.027356135856687017 -0.019668801631094333
48188575 -0.028985926039559927 -0.018107716418098718
48411900 -0.02975298194286289 -0.0172853870565582
48635225 -0.030892354495557585 -0.01596052459601538
48858550 -0.03146250497011641 -0.014823432194823722
49081875 -0.03260740478555376 -0.013391829713556612
49305200 -0.033184677445086505 -0.012053143522538718
49528525 -0.03390508634712941 -0.010631729810375402
49751850 -0.03420020541701587 -0.009229418445205554
49975175 -0.0348864550602128 -0.007604660187056434
50198500 -0.035088036989480244 -0.005927568846510533
50421825 -0.03544738347770033 -0.0043401427691278196
50645150 -0.035598164241195974 -0.0030154308161363125
50868475 -0.03555344093978243 -0.0014652283917978878
51091800 -0.0350864991002212 0.00040267466278093056
51315125 -0.03503747590283477 0.0022154962057878355
51538450 -0.03496573489783977 0.003527803327531376
51761775 -0.034131632529097726 0.004892407763341172
51985100 -0.03359471849735711 0.006219240435631102
52208425 -0.03296714082817799 0.007735314087451115
52431750 -0.03205160607003152 0.008817658307974666
52655075 -0.031310007248884164 0.010362213454072735
52878400 -0.030323596628358495 0.011814860754892608
53101725 -0.029207377004465927 0.012719454808256703
53325050 -0.027747254818830867 0.013713909648179035
53548375 -0.026559622808915027 0.01511483702185643
53771700 -0.025120092956316963 0.015871711938212935
53995025 -0.02400951103912157 0.016928812753280748
54218350 -0.022650175693410855 0.01765722954867088
54441675 -0.021238273888118272 0.01813823319344186
54665000 -0.01911874890052407 0.01843331100862889
54888325 -0.018116988108069856 0.019061484635929524
55111650 -0.016497035383887 0.019354633335800224
55334975 -0.014557320557456796 0.01942905184030654
55558300 -0.013077330024049785 0.019800387958160946
55781625 -0.011540895475573496 0.019679260350924734
56004950 -0.01010196936161898 0.019292516227059433
56228275 -0.00832535108840083 0.019021170488135956
56451600 -0.006751857265043056 0.018919820808681573
56674925 -0.004939067938866879 0.018454026907732873
56898250 -0.00369244148152106 0.017538573378601444
57121575 -0.0018134410489252717 0.01724458207105514
57344900 -0.0004971448083202478 0.016475883759606427
57568225 0.0006928941416497498 0.015623862278915802
57791550 0.0023410997353774314 0.01432239496886783
58014875 0.003201204677942323 0.013196004207411918
58238200 0.004715696093263892 0.011844664300396527
58461525 0.0056884107104285125 0.011004756585143273
58684850 0.006550366975709099 0.009521267261881268
58908175 0.007482115966330053 0.007917342650841461
59131500 0.008288980297321153 0.00663086146946568
59354825 0.009095773634184803 0.005175498362594402
59578150 0.009746241498278062 0.0034839252376641637
59801475 0.009986899965258464 0.0018753173885039387
60024800 0.010184465188537018 7.154634815501446e-05
60248125 0.010800568134811957 -0.001311240860354382
60471450 0.01083660390059503 -0.00301849586084484
60694775 0.01076920662357645 -0.004947851202152849
60918100 0.011073758965592841 -0.006350568101987711
61141425 0.01121159933980388 -0.007982336308296919
61364750 0.010537842324592319 -0.009806549080274493
61588075 0.009972717473777737 -0.011195843844459702
61811400 0.009357289294625842 -0.012752344834868349
62034725 0.008785962082476957 -0.014668579998213041
62258050 0.00817823346065067 -0.015911333201221303
62481375 0.007289431293047391 -0.017522774085591532
62704700 0.006393974891974871 -0.018909945889972614
62928025 0.0052420463742027254 -0.020253690230726536
63151350 0.00398633022325994 -0.02153782549758532
63374675 0.002797981147011168 -0.022615720491131537
63598000 0.001257126379375063 -0.02368526404528931
63821325 0.00024645753244846244 -0.024997374015628775
64044650 -0.001158961992136956 -0.025367265389455544
64267975 -0.002983570365562181 -0.02636686443578879
64491300 -0.004439938067069466 -0.027203621128350928
64714625 -0.005961088000804921 -0.027664014928709502
64937950 -0.007636002106994907 -0.027936133888047037
65161275 -0.008910853254893186 -0.028633638626264044
65384600 -0.01110644187592702 -0.02889969954198669
65607925 -0.012464503709574491 -0.029025266195317492
65831250 -0.01465098265976536 -0.02889618572934474
66054575 -0.016031919965315472 -0.02894460584071062
66277900 -0.017587590935505843 -0.02852610382045498
66501225 -0.019490416397582366 -0.028194722120276763
66724550 -0.020843468377966735 -0.027569564412359776
66947875 -0.022830337304306274 -0.027415901771114394
67171200 -0.023837973676441585 -0.026415121542597356
67394525 -0.025572875658964104 -0.025867619642995096
67617850 -0.02672856034481262 -0.025067931466354144
67841175 -0.028350137050478882 -0.023906998280868286
68064500 -0.029724988173738597 -0.022809784803939165
68287825 -0.03054290972166792 -0.022008013029703434
68511150 -0.0319870363326665 -0.020017719495332913
68734475 -0.03288851583911937 -0.019318370574672956
68957800 -0.03394822955097893 -0.017847116957746396
69181125 -0.03494239062372181 -0.01627310617038008
69404450 -0.03548813016405886 -0.015131575352474294
69627775 -0.036244737957330325 -0.013311642240276955
69851100 -0.03670114692802937 -0.011626009391991434
70074425 -0.03731183229410006 -0.010363449980677553
70297750 -0.03753324939027178 -0.008887578627335363
70521075 -0.03739076885419079 -0.006699155176992871
70744400 -0.03764704254573181 -0.00560218150353989
70967725 -0.037605273772465544 -0.003633211171756456
71191050 -0.03738855598191791 -0.0019620336434234414
71414375 -0.037231504795115285 -0.0006413016775773556
71637700 -0.036647921451180725 0.0008231101328642626
71861025 -0.03674674326339562 0.0027773921766455845
72084350 -0.035749264543238776 0.004189654078458898
72307675 -0.03478260922134804 0.005266474430899728
72531000 -0.034120488083608354 0.0070034174597198235
72754325 -0.0332490288373031 0.008644638921815731
72977650 -0.032326849728049944 0.009885999214924444
73200975 -0.030970832348852284 0.011098810564213213
73424300 -0.029883830946853693 0.012044887102727731
73647625 -0.0286764134172369 0.01316796787882008
73870950 -0.027140243296767032 0.013899808801879288
74094275 -0.02584333104088813 0.014553668826284557
74317600 -0.024749002396828878 0.01572248727983538
74540925 -0.02315667485678287 0.01603706234689692
74764250 -0.021547799930280154 0.016591176136997565
74987575 -0.020086103513556657 0.017298120573387275
75210900 -0.018561227270789942 0.017360195699219993
75434225 -0.01702965582949584 0.017790729241388057
75657550 -0.015212164134485414 0.01783808263047515
75880875 -0.013715101136723098 0.017739775283462794
76104200 -0.012070272624189339 0.017757948935125844
76327525 -0.010314433412234947 0.01771175934669242
76550850 -0.009008180141424054 0.01741840036691458
76774175 -0.00711702486969541 0.016542696944504717
76997500 -0.006127367535283298 0.016041799570331236
77220825 -0.004363785656194014 0.015136287911573381
77444150 -0.003260818210069885 0.014843227723645847
77667475 -0.0019305531480916186 0.013720297991224454
77890800 -0.0006489740116511334 0.012764680258019653
78114125 0.0007464826965783485 0.011850273019143372
78337450 0.00180068315732351 0.010499316939260732
78560775 0.002384391011767146 0.009109037810445414
78784100 0.0035206005635659517 0.008086275314659979
79007425 0.0046499922647245135 0.006820456263294729
79230750 0.005516348127136368 0.005093827432807051
79454075 0.005896978267828655 0.004059915575650733
79677400 0.006209357667420622 0.0023479721353207765
79900725 0.006923288912917076 0.0006540086736590505
80124050 0.007362446155847522 -0.0006067267385436388
80347375 0.007136839807204829 -0.0021287977790101797
80570700 0.007471438765653703 -0.003663967787554282
80794025 0.0075333969281844845 -0.0053312928444665736
81017350 0.0075266174755568615 -0.007070688655995874
81240675 0.007253795195374772 -0.008657874266178488
81464000 0.006793490933238718 -0.009918385704833832
81687325 0.006342594347371178 -0.01163352672587868
81910650 0.005713051234877745 -0.012916609894442222
82133975 0.004859104934306 -0.014463409208187651
82357300 0.004524277295131586 -0.016039179712217667
82580625 0.0034123762769359784 -0.017218145117331277
82803950 0.0018860411119237274 -0.0182861059960399
83027275 0.001113891689812016 -0.019124998185600414
83250600 0.00034808469062322123 -0.02075407390852333
83473925 -0.00118706767578241 -0.0216806636237714
83697250 -0.0024684012821387983 -0.022579417305064183
83920575 -0.0035046261015564 -0.023349837620058583
84143900 -0.004996717958841736 -0.02414835765658589
84367225 -0.006669484447898599 -0.024739145422220707
84590550 -0.00797768471153895 -0.025544376313132264
84813875 -0.00950926509771113 -0.025631146236729956
85037200 -0.01098469901873929 -0.026079843974269767
85260525 -0.012236643219371134 -0.02620512525485085
85483850 -0.014176201973555711 -0.02649699348290389
85707175 -0.015611387142490071 -0.026198850130756172
85930500 -0.017110919171971377 -0.02611375399808477
86153825 -0.01877494769468346 -0.026215353951894414
86377150 -0.02042981746862767 -0.025429885458152644
86600475 -0.021986784412971604 -0.02494353534124878
86823800 -0.023320276578093647 -0.024477440043520725
87047125 -0.024919445655867692 -0.02377432648026011
87270450 -0.026350706760962555 -0.022884746030460153
87493775 -0.027498753392588473 -0.021963600893895693
87717100 -0.028465702032493122 -0.021155957319928396
87940425 -0.029929197223931187 -0.020094731983761476
88163750 -0.031165979730442966 -0.01893630841300869
88387075 -0.03226051417457151 -0.017611300379448375
88610400 -0.032998299014024284 -0.016372614777440158
88833725 -0.03378958785780144 -0.014725275268263487
89057050 -0.034528353049121434 -0.013440647919106487
89280375 -0.0353200589526599 -0.011854131589372631
89503700 -0.03598680389283526 -0.010641252034466623
89727025 -0.03600872786843127 -0.00910070182621719
89950350 -0.036634044365162 -0.007133464159062472
90173675 -0.03676244609091688 -0.005735144990215043
90397000 -0.036878010687236625 -0.004070939762165039
90620325 -0.03681136833163012 -0.0028874476787123377
90843650 -0.03660730760716374 -0.0006115068742080373
91066975 -0.03607337506999578 0.0008777326633585389
91290300 -0.036114720239353894 0.002509835297889891
91513625 -0.035773894845547216 0.004158771332068764
91736950 -0.034904570223737136 0.005397849698554282
91960275 -0.034189210458169986 0.006695524271558536
92183600 -0.033412743304533095 0.008581506816888497
92406925 -0.0323304711215532 0.009766535898272734
92630250 -0.03150784508270069 0.010924096476878845
92853575 -0.030722690361932745 0.012172640350512607
93076900 -0.029383090156614645 0.013469581017905227
93300225 -0.028327532744223855 0.014625323366072798
93523550 -0.02667925644325865 0.015635395129235927
93746875 -0.02514152296103572 0.016217781852492893
93970200 -0.02363318968716398 0.01693237081736812
94193525 -0.02214419719886956 0.017823636716567507
94416850 -0.020848970879656804 0.018295906674855058
94640175 -0.01912521953873038 0.018858412196230922
94863500 -0.017609489728983064 0.019347040845060327
95086825 -0.01585263321036327 0.019823159433778284
95310150 -0.014249094066538058 0.019595547305526678
95533475 -0.012654128979911444 0.02003676711273815
95756800 -0.010875979822892774 0.019779835388813186
