# HZ S RI R 50
10000000 0.9432166449565282 -0.0689190012802104
10223325 0.9360238568997548 -0.1379209199361394
10446650 0.9243823199042286 -0.20583179288290854
10669975 0.9077416318346795 -0.272804867219853
10893300 0.8859480418065341 -0.33774480583534366
11116625 0.859482077711509 -0.40129137961868094
11339950 0.8284005547941421 -0.46238260330691006
11563275 0.7927695667917499 -0.5218578957259289
11786600 0.7533726177715274 -0.578326418960551
12009925 0.7099894805598232 -0.6314233391648296
12233250 0.6626792783210725 -0.6811656545191428
12456575 0.6117562030379939 -0.7272858957400473
12679900 0.5580341574979184 -0.7698429870947667
12903225 0.5016694637146268 -0.8077876614644343
13126550 0.4414399997690999 -0.8419353497849876
13349875 0.38029253100513183 -0.8717440198806415
13573200 0.3165093497005384 -0.8965286291191154
13796525 0.2518072324964205 -0.9171406430128453
14019850 0.18531203857037318 -0.9321229477887524
14243175 0.11879165593748116 -0.9428649947908195
14466500 0.051412467274653637 -0.9482163885140974
14689825 -0.01625672954574079 -0.9485979694037295
14913150 -0.08414391499124209 -0.9449603309346809
15136475 -0.15086304090919972 -0.9363559033530575
15359800 -0.21666430291312205 -0.9222390167728529
15583125 -0.28068943534728413 -0.9047922398185932
15806450 -0.3429152275499695 -0.8816587765615059
16029775 -0.40403689529086184 -0.8546037862860271
16253100 -0.46288385724855097 -0.8238565316556906
16476425 -0.5181648730325241 -0.7879709848661712
16699750 -0.571521149301193 -0.7494823214423318
16923075 -0.6212544429476384 -0.7067685111296076
17146400 -0.6687742004370164 -0.6609190215417183
17369725 -0.7130964889115223 -0.6117083116192844
17593050 -0.7526888767308935 -0.5611538382369256
17816375 -0.7888080932312057 -0.506680006555859
18039700 -0.8207596217934673 -0.44980187987589476
18263025 -0.8489839940500705 -0.3912883006268846
18486350 -0.8731011160088958 -0.33104044499843555
18709675 -0.8923205113401674 -0.26945028902995816
18933000 -0.9077289443041491 -0.20748766313406192
19156325 -0.9186141681258079 -0.14389837446782255
19379650 -0.9251658243648376 -0.080319707091103
19602975 -0.9268359613711776 -0.016260367690362543
19826300 -0.9242995155294845 0.047614186759271135
20049625 -0.9176650837552485 0.11112210925542026
20272950 -0.9065519013883664 0.17374542337831414
20496275 -0.8909018582973738 0.23581954879466513
20719600 -0.8712399297230337 0.29576407823934286
20942925 -0.8478540202491778 0.35507611058885874
21166250 -0.8199480357721464 0.4119820306178331
21389575 -0.7887736335164834 0.46673202302482814
21612900 -0.7533843532442428 0.519784639935999
21836225 -0.7150102457998065 0.5702089914922557
22059550 -0.6726337096102399 0.6173347847672357
22282875 -0.6276338404427421 0.6617436260592685
22506200 -0.5793858744570344 0.7027410588710834
22729525 -0.528481163045618 0.7406705607772696
22952850 -0.4756879479305063 0.7751408224727923
23176175 -0.4193019699699861 0.805204958029003
23399500 -0.3614141082970367 0.8317809104638159
23622825 -0.302730720982309 0.8543294178573305
23846150 -0.24165263731914738 0.8729805943435569
24069475 -0.17971473528029308 0.8870426611862111
24292800 -0.11693821236390341 0.8969936238346199
24516125 -0.05344391839486724 0.9022988697853915
24739450 0.011122738958804973 0.9033825719538535
24962775 0.07512329002073496 0.8997860038165134
25186100 0.1388953947603956 0.8918647100039139
25409425 0.2016100331790987 0.8795893504540399
25632750 0.26440199051124846 0.8625977111595207
25856075 0.32421229688875275 0.8409194493004848
26079400 0.38382291053218104 0.8160228166088039
26302725 0.4415409953135678 0.786310282842857
26526050 0.4962305694546712 0.7518248553886211
26749375 0.5492994220998157 0.7147085354068585
26972700 0.5997551506064523 0.6728114371004366
27196025 0.6470976042091767 0.6279841510616412
27419350 0.6912208550271675 0.5797107344805272
27642675 0.731308783858523 0.5285940485170836
27866000 0.767769891753696 0.4738571075014245
28089325 0.8008742406196143 0.4170614412250698
28312650 0.8295792557746002 0.358478871971273
28535975 0.853546574161125 0.2968164547772303
28759300 0.873898883349357 0.23390815836980816
28982625 0.888458474434212 0.1696299446852991
29205950 0.8993090738071614 0.10383757363819447
29429275 0.9052230881568193 0.03837644696498953
29652600 0.9059980391745608 -0.028360003245222407
29875925 0.9024633640075125 -0.09432519800866687
30099250 0.8934768656580993 -0.1601984862445123
30322575 0.8801703436799797 -0.22522884206975127
30545900 0.8617269738029532 -0.2891600352570529
30769225 0.8390416485000443 -0.3517286899056983
30992550 0.8115822506262457 -0.4122198117744486
31215875 0.7802799938027009 -0.47041696567274854
31439200 0.7438120349212533 -0.5262025293535615
31662525 0.7038083472505742 -0.5795229909071449
31885850 0.6601987109147937 -0.629480321420122
32109175 0.6130874157897716 -0.6760109406238591
32332500 0.5625880459991268 -0.7192438180312467
32555825 0.5089447623334736 -0.7579784161127916
32779150 0.45323673149537524 -0.7940699555003089
33002475 0.3948903140478526 -0.8248272629058241
33225800 0.33392334761081593 -0.8507981987508836
33449125 0.27211684795646746 -0.873131369193747
33672450 0.20866095551190778 -0.8905154327940057
33895775 0.14430086168217118 -0.9038287585369316
34119100 0.07926373201709641 -0.911044898333954
34342425 0.014349935164428305 -0.9139482745864828
34565750 -0.050754838280932996 -0.9136371499020359
34789075 -0.11566025538338368 -0.906720718938042
35012400 -0.17942080834418161 -0.8964141335712383
35235725 -0.24268420220761655 -0.8810099487962233
35459050 -0.3034162918076236 -0.8615002086131878
35682375 -0.36326605551690005 -0.8365434460031197
35905700 -0.42107239157205134 -0.8089463580029431
36129025 -0.4767683005805144 -0.777122900652392
36352350 -0.529278947825112 -0.7416047945456151
36575675 -0.5799624727945364 -0.7015062606938501
36799000 -0.6268806536251477 -0.6589689048818125
37022325 -0.6710323920626606 -0.6131264641457861
37245650 -0.7115576705076206 -0.5651614033998568
37468975 -0.7480220810242012 -0.5134727110012692
37692300 -0.780985657938773 -0.46014247736218566
37915625 -0.8103521513368039 -0.4048234319437494
38138950 -0.835625537338066 -0.34785327505155733
38362275 -0.8562113626633068 -0.28890748556709805
38585600 -0.8731377898562491 -0.2290055336491117
38808925 -0.8856143260050261 -0.16849237309672405
39032250 -0.8937985638079708 -0.10675162086857432
39255575 -0.8984148795143722 -0.04550367847360924
39478900 -0.8977452107397579 0.016482119095604708
39702225 -0.8936795118041883 0.0777029745468924
39925550 -0.8850832270941191 0.138986045655942
40148875 -0.8722540932125343 0.19897152762983028
40372200 -0.8556086304018142 0.2577317440830745
40595525 -0.8349963666591278 0.31551760886044117
40818850 -0.8101484348669288 0.37213626347023354
41042175 -0.7817137558640749 0.42590913648845924
41265500 -0.7504531456166833 0.478264238103284
41488825 -0.7145187054472356 0.527882309616757
41712150 -0.67595104690174 0.5747078232913995
41935475 -0.6337553170208383 0.6196194694729998
42158800 -0.5895364280156841 0.6602807194625508
42382125 -0.5415378169588889 0.6988450619165114
42605450 -0.4921572962135566 0.7336280038274395
42828775 -0.4390002439773604 0.7651116319785849
43052100 -0.3852861526615906 0.7932954163391572
43275425 -0.32862939070874203 0.8172946024711598
43498750 -0.2712005630062036 0.8375405926625253
43722075 -0.211413823001148 0.8532696731996307
43945400 -0.15245709776008892 0.865522620559965
44168725 -0.09128140863999418 0.8735380869354707
44392050 -0.030083447198587052 0.8771447047090628
44615375 0.03212524871240721 0.876932099434342
44838700 0.093489771464849 0.8714128410085548
45062025 0.15386375577023306 0.8627603727682877
45285350 0.21425528408061695 0.8489888295373765
45508675 0.2737408806118456 0.8320131260730104
45732000 0.33165598791989787 0.8104554521533319
45955325 0.38904600251395993 0.7844147239022174
46178650 0.44322649240021034 0.7547876683324647
46401975 0.49645846071433763 0.7218457378399893
46625300 0.5464870433574497 0.6849190914375837
46848625 0.5941116131316437 0.6434533310089148
47071950 0.6387248897687978 0.5995793086826574
47295275 0.6805438339204235 0.552371765712462
47518600 0.718582689586136 0.5026264203633312
47741925 0.7532779397403734 0.4494937858902234
47965250 0.7837372108749908 0.39419627125342405
48188575 0.8109900046179656 0.3368845710437533
48411900 0.8339834857568528 0.2771708880233148
48635225 0.8519251503315376 0.21614616152106858
48858550 0.8659290405488143 0.1540728900834771
49081875 0.8754698118235755 0.09079477344086226
49305200 0.8804853971955765 0.02722402253362454
49528525 0.8804374010984997 -0.0371655949804396
49751850 0.8764746274084766 -0.10058058504256662
49975175 0.8674257024700402 -0.1641848785506096
50198500 0.8542709144114257 -0.22689288383650938
50421825 0.8355270832399745 -0.2888093597833593
50645150 0.8133493998355025 -0.34899142150525797
50868475 0.7862629595823268 -0.4075423175453787
51091800 0.755604702143928 -0.4630712791381874
51315125 0.720319164903305 -0.51755946607142
51538450 0.6815178238266232 -0.5686076636053571
51761775 0.638881017370115 -0.6168998395587155
51985100 0.5928828830776263 -0.6621527818581471
52208425 0.5435806604050992 -0.7036929114472324
52431750 0.4922146726663742 -0.7414979620025366
52655075 0.4377081812668486 -0.7754429550356058
52878400 0.3803521321799655 -0.8048620594973446
53101725 0.32177612494166513 -0.8310628776763518
53325050 0.2613967956139111 -0.8518632359000082
53548375 0.19942257304595026 -0.8686751657060656
53771700 0.13669789039122995 -0.8808057202998231
53995025 0.07350127736984689 -0.8881154057713122
54218350 0.010227829245963596 -0.8911750426058549
54441675 -0.05385707939009328 -0.8897798209181297
54665000 -0.11556670333476929 -0.8837667686807091
54888325 -0.1787123649491557 -0.8722375927781554
55111650 -0.2401804374550254 -0.8585030307921108
55334975 -0.30000641414382023 -0.8387420483149189
55558300 -0.35825377318047447 -0.8148841925890454
55781625 -0.41480209524120776 -0.787324460588209
56004950 -0.4682356123132612 -0.7557211347340921
56228275 -0.5198844513331843 -0.7205774850347674
56451600 -0.5685335446995071 -0.6818045431994272
56674925 -0.6146501226497375 -0.6399072177204176
56898250 -0.6568938643375767 -0.595509798575936
57121575 -0.6962671288640581 -0.5478335139270046
57344900 -0.7320870082475253 -0.49709758223584727
57568225 -0.7639077096013319 -0.44474709930916845
57791550 -0.7920215584900011 -0.39058487060227803
58014875 -0.8159324751808616 -0.3346947821058815
58238200 -0.8366906128111005 -0.27710312320590025
58461525 -0.8524086067332014 -0.21798082311651953
58684850 -0.8644114272586176 -0.1582865167028379
58908175 -0.8729181543363245 -0.09872349162766275
59131500 -0.876042108351789 -0.03795928079629643
59354825 -0.8756018983451732 0.022234293765723803
59578150 -0.8706283726365142 0.08288277037669325
59801475 -0.8622345467344861 0.14203549721718012
60024800 -0.8492029795389755 0.20084187401526898
60248125 -0.8320640782938336 0.2586230093388159
60471450 -0.8116038577867878 0.31507896251538287
60694775 -0.7869066987746737 0.36937967231358
60918100 -0.7577141977529168 0.42220850578325975
61141425 -0.7264990238923165 0.4733574033927887
61364750 -0.6911108268783412 0.5209811853056621
61588075 -0.6529856286954941 0.5668584810350876
61811400 -0.6115930799959399 0.610097905705921
62034725 -0.566680607365349 0.6495825316753716
62258050 -0.5197919644589469 0.6867636128418165
62481375 -0.4705370816205535 0.7207448506668153
62704700 -0.4187999794746095 0.7505734207528079
62928025 -0.36589904305456544 0.7773913413105698
63151350 -0.3099755208206369 0.800344874762522
63374675 -0.25342239682893647 0.8189548392605751
63598000 -0.19544701406734935 0.8343723721371575
63821325 -0.13593477310966487 0.8447583061459811
64044650 -0.07637273078371043 0.8525268178573387
64267975 -0.01650769321226755 0.8550501254851858
64491300 0.0434942130435204 0.8531241492411327
64714625 0.10437443197048582 0.8477099497511494
64937950 0.16359972568190365 0.8386722936750521
65161275 0.22294498326975484 0.8239855220214153
65384600 0.2804528795794139 0.8057118552554353
65607925 0.3373723025066967 0.7838777708353787
65831250 0.3917213667504205 0.7581242427775318
66054575 0.4447741372195538 0.7279459168747361
66277900 0.496091063583183 0.6945291327478191
66501225 0.5446554558878245 0.6570368887152941
66724550 0.5910168496869465 0.6167291022332186
66947875 0.633556746388394 0.5723996390759948
67171200 0.6737930984587814 0.5259150492235132
67394525 0.7096860305692524 0.47595357212343153
67617850 0.7429969832381358 0.4242563597814215
67841175 0.7724322136867044 0.36928425497806594
68064500 0.7974451988766065 0.31283271696222176
68287825 0.8189546042086514 0.2544024459388619
68511150 0.8357143602648582 0.1947870062204261
68734475 0.8485625941630531 0.13403320591244844
68957800 0.8563679090961637 0.07213203794822276
69181125 0.8602015993007024 0.009450525920192025
69404450 0.8597945629518859 -0.052977563931718596
69627775 0.8545073501973628 -0.11529981233325855
69851100 0.8442003477627524 -0.17729656098266172
70074425 0.8298146727898037 -0.23818932642154117
70297750 0.8115461909168327 -0.2985882779638709
70521075 0.7883632657181663 -0.3566050408316093
70744400 0.7611012638972933 -0.4137178917226105
70967725 0.7297294175390172 -0.46822624211440467
71191050 0.694182937642288 -0.5201772810918162
71414375 0.6557221595946576 -0.5695636548408651
71637700 0.612885340464836 -0.6165306356088309
71861025 0.5667990769391404 -0.6590997264788182
72084350 0.5186629527406974 -0.6991607782147555
72307675 0.46719873020061137 -0.7350964838316875
72531000 0.41321561340842106 -0.7673186764422647
72754325 0.35684095512676856 -0.7954465609910037
72977650 0.2990239795929647 -0.8195476538296953
73200975 0.24001414373811952 -0.8390885040629621
73424300 0.17838724800442096 -0.8547987615193512
73647625 0.11770908955355817 -0.8647629113368493
73870950 0.055692231873697394 -0.8721202674053999
74094275 -0.006396731225047575 -0.8744625516628641
74317600 -0.06859688191889468 -0.8708058606967584
74540925 -0.1301683420617969 -0.8646568856731552
74764250 -0.19082429906963708 -0.8528334479651666
74987575 -0.250685655172097 -0.8370294791040046
75210900 -0.308554599843744 -0.8168381213125144
75434225 -0.36508844111164007 -0.7932460010809461
75657550 -0.41880256619185835 -0.7658815268051041
75880875 -0.47192824316926935 -0.7338026544676216
76104200 -0.5210558673481541 -0.6991841767701549
76327525 -0.5682677952635901 -0.6602104622090079
76550850 -0.6123733241237698 -0.6186296898896679
76774175 -0.653028778527804 -0.5746445084862933
76997500 -0.6909031573248811 -0.5274668282507959
77220825 -0.7253136033379051 -0.47832669749273804
77444150 -0.75520479296281 -0.4265779094576019
77667475 -0.7815029187700409 -0.37324760969332155
77890800 -0.8050316566904591 -0.3180765261885859
78114125 -0.8235853157216213 -0.26139864438376287
78337450 -0.8384018035875944 -0.20428558024104038
78560775 -0.8495094904207241 -0.14617058976845326
78784100 -0.8564675136463435 -0.08708955649173676
79007425 -0.8588273217972303 -0.028203588829542756
79230750 -0.8574189886370756 0.030696232129843126
79454075 -0.8525201583716928 0.08967956859897817
79677400 -0.8430183608194801 0.14745388711785148
79900725 -0.8296546632404073 0.20455941761613908
80124050 -0.8124470824172666 0.2605406966905665
80347375 -0.7915169791696739 0.315709836339722
80570700 -0.766608780484647 0.36858934970325385
80794025 -0.7389840895618488 0.41995146221265567
81017350 -0.7069629839990783 0.46910487752086893
81240675 -0.6723177958752046 0.516155363404012
81464000 -0.6346407923368205 0.5606008774187885
81687325 -0.5937405841825761 0.6017822094755234
81910650 -0.5503696474719447 0.6406346336461158
82133975 -0.5042069018673865 0.676119944293654
82357300 -0.45574238066475303 0.7084335794717143
82580625 -0.405073497053027 0.7376664780024659
82803950 -0.35293872025874873 0.7634444490445292
83027275 -0.2991681037440003 0.7854640111539704
83250600 -0.24351790888258437 0.8029387384608987
83473925 -0.18700729266174718 0.8178378890680753
83697250 -0.1294569061511667 0.8279994938667116
83920575 -0.07109110439645837 0.8347944481886898
84143900 -0.012864903834583974 0.8371931715708577
84367225 0.04530759836801533 0.8358819111550004
84590550 0.10412487236187572 0.8298704883862438
84813875 0.16255482924078268 0.8202956113946811
85037200 0.21983110115790483 0.8068701571529523
85260525 0.2761244475214288 0.7891445904430173
85483850 0.33100161338113493 0.7667323192782167
85707175 0.38478549245792076 0.7415398769075287
85930500 0.4367129358034576 0.713034290780349
86153825 0.48641872956982957 0.6794907253243163
86377150 0.5332268921897161 0.6433165473768349
86600475 0.5786028114711914 0.6038594400065187
86823800 0.620453022531493 0.5611101112618169
87047125 0.6589720082103283 0.5154831428307797
87270450 0.6947411532910227 0.4669978619363885
87493775 0.7268391276445542 0.4159837137550692
87717100 0.75552204411384 0.36257942551403105
87940425 0.7807664364495086 0.30708188253625823
88163750 0.8010371186635241 0.2504035767857477
88387075 0.8180288212278105 0.19153302398567099
88610400 0.8308403143211954 0.1317772699118241
88833725 0.8387776878885913 0.07102460966108286
89057050 0.8429216736224922 0.010174603578662362
89280375 0.8420778807960663 -0.05122360999877588
89503700 0.8367077030984765 -0.11261494756085616
89727025 0.8281070441110165 -0.17310151944810045
89950350 0.813686036003647 -0.23345478529798752
90173675 0.7952759236247281 -0.29225442431049736
90397000 0.7730213698565541 -0.34996757286377866
90620325 0.7466581280316087 -0.40527428559825346
90843650 0.7156256591692676 -0.45908490956759157
91066975 0.6812997762131221 -0.5103512629632583
91290300 0.6430661700539289 -0.559019712407594
91513625 0.6016579681038007 -0.6050156455559145
91736950 0.5567299817393421 -0.647366472477427
91960275 0.5087878980109005 -0.6870487361771792
92183600 0.4589375074467153 -0.7222281306513111
92406925 0.40553433775340697 -0.7537861044295269
92630250 0.35037889928242855 -0.7821173833047367
92853575 0.2929953785579 -0.8058421378371833
93076900 0.2348108588814279 -0.8253601269726969
93300225 0.17550648954474027 -0.8395409992774766
93523550 0.11493653154270554 -0.8506161570626095
93746875 0.05388881970946474 -0.8571632062716131
93970200 -0.006754211725730008 -0.858994885868144
94193525 -0.06854503766506972 -0.8558206827831668
94416850 -0.12954272815023044 -0.8496319912046973
94640175 -0.18847182717947975 -0.837503258811572
94863500 -0.24781160179587558 -0.8220837204632228
95086825 -0.3049941842223268 -0.8023961783317578
95310150 -0.360115826640485 -0.7783577776487901
95533475 -0.41405820166539437 -0.7504222899488028
95756800 -0.46514020577539833 -0.7192639320100364
95980125 -0.5142646022706086 -0.6844591684865126
96203450 -0.5606803859673013 -0.6462119921645084
96426775 -0.6036620780951472 -0.6053641404268032
96650100 -0.6441737781277816 -0.5614394716816252
96873425 -0.6805559876616786 -0.5141358665601927
97096750 -0.7138858662851323 -0.4652378591447637
97320075 -0.7434114219470601 -0.41439377248205933
97543400 -0.7697481467005117 -0.36175312534595133
97766725 -0.791692748700482 -0.3069400007000919
97990050 -0.809798407859388 -0.25120735109013953
98213375 -0.8241001863192852 -0.1938732872049819
98436700 -0.8341410772308921 -0.13699774728938857
98660025 -0.8405797020732613 -0.07837439375295294
98883350 -0.8426408440054415 -0.02019864300655055
99106675 -0.8412718273674609 0.03705500063693154
99330000 -0.835154704248136 0.09535684257888755
99553325 -0.8256642325852228 0.15232767930886587
99776650 -0.8120146796349983 0.2086227532590778
99999975 -0.7943097319039372 0.26348685174377967
