# HZ S RI R 50
10000000 -0.9480473403357471 0.05971461182251052
10223325 -0.9400615664470289 0.12534386380656035
10446650 -0.927395907147237 0.18975594963172673
10669975 -0.9108094904542828 0.2531258729492849
10893300 -0.8894285492158114 0.3155837231563076
11116625 -0.8639838379586688 0.3759243292129133
11339950 -0.8342755650518578 0.434548194096147
11563275 -0.8010194617144498 0.49031973268217577
11786600 -0.7637283585998413 0.5439964330308671
12009925 -0.7233997652702815 0.5952429048917871
12233250 -0.6789088739682133 0.6430436153554585
12456575 -0.6316618670225759 0.6879822553335498
12679900 -0.5815816779890461 0.7300781227973965
12903225 -0.5284516211593945 0.767593521565805
13126550 -0.47322499228742543 0.801363614942932
13349875 -0.4154122160226131 0.8316141940744535
13573200 -0.3556788199546193 0.8584588153698878
13796525 -0.2938008418747917 0.8801477720164393
14019850 -0.23113813137191605 0.8980739683229706
14243175 -0.16696679326143088 0.9112742877129044
14466500 -0.1023572401331288 0.9201294540429736
14689825 -0.03700957307655043 0.925575136063074
14913150 0.028112490891271418 0.9246061807052702
15136475 0.09382487785655871 0.9197034771319562
15359800 0.15864713136166414 0.9106540499611413
15583125 0.2233175831614866 0.8961938799202245
15806450 0.2867323101899344 0.8782021448060151
16029775 0.3490539472168072 0.8554027449471423
16253100 0.4089945512684569 0.8272565846498994
16476425 0.46786130227017786 0.7965981858656724
16699750 0.5237771866146748 0.7606044742339131
16923075 0.577179424260508 0.7213459531867658
17146400 0.627693441487586 0.6781382457182454
17369725 0.6747599165048771 0.6310885415103481
17593050 0.7198636235782259 0.5800662475420283
17816375 0.7594732911754734 0.5268345992330079
18039700 0.796416103984945 0.47106927376386265
18263025 0.8295317910433146 0.41167775719426936
18486350 0.8568297719834138 0.35058901056536657
18709675 0.8803027481742594 0.2876759008001601
18933000 0.8992577243829641 0.22289467384613706
19156325 0.9143012451296354 0.15688021579414063
19379650 0.9238745971972803 0.09032780734280736
19602975 0.9284900274327226 0.02255616774482142
19826300 0.928351660843419 -0.045391496807765275
20049625 0.9229681444435426 -0.11262643356708979
20272950 0.912954645900556 -0.17975680677067363
20496275 0.8979751952886872 -0.24591557071747597
20719600 0.8779312261331863 -0.31073096092670777
20942925 0.8538205727898646 -0.37419012520061784
21166250 0.8246375838453043 -0.4356809626078174
21389575 0.7915167447943766 -0.49452235429921704
21612900 0.7535574729653551 -0.5514333368478527
21836225 0.712212842103025 -0.6048253770776917
22059550 0.6668291195049701 -0.6549179676983671
22282875 0.617620406970118 -0.7020282500097833
22506200 0.5652659472768291 -0.745271782870897
22729525 0.510168182428787 -0.7836136672949916
22952850 0.45239156515839324 -0.8185927272333572
23176175 0.39280162382592715 -0.8494511012525631
23399500 0.33096277642919475 -0.8758327237401431
23622825 0.2666888937661165 -0.8977243632247427
23846150 0.20215490408470219 -0.9137896947724069
24069475 0.13617776772907456 -0.9258711695867682
24292800 0.06957978169617046 -0.9334143908328293
24516125 0.00341200330106189 -0.9357434849056534
24739450 -0.06282137346179172 -0.9334336014422444
24962775 -0.1284144111890149 -0.9265462850501295
25186100 -0.19343694821575708 -0.9143683097596453
25409425 -0.2576333963752871 -0.8982781758789521
25632750 -0.31941451909004265 -0.8776242854067854
25856075 -0.38044204717749813 -0.8522573789400819
26079400 -0.4398253437235554 -0.8223205180789782
26302725 -0.4950392209584628 -0.7898934049294702
26526050 -0.5483057853449886 -0.7531398858400735
26749375 -0.5991053377211212 -0.7119811141876446
26972700 -0.6460620491152318 -0.6684552693537896
27196025 -0.6902688146495357 -0.6216908159481505
27419350 -0.7313851671994507 -0.5706390998239169
27642675 -0.7679773322946075 -0.518836705180389
27866000 -0.8014259221179599 -0.46396062569234303
28089325 -0.8303966629280308 -0.40750200235595896
28312650 -0.8556831555502639 -0.3481736441683104
28535975 -0.8769285802455274 -0.28833992878391773
28759300 -0.8931388962568654 -0.22686638397615078
28982625 -0.9054930779591579 -0.16502181078025374
29205950 -0.9135802716315184 -0.10230395626734776
29429275 -0.9172803524272384 -0.03909833591365608
29652600 -0.9170509095693579 0.02405867302787951
29875925 -0.9116676863928517 0.08682724376619694
30099250 -0.9023190682700376 0.14832620968543794
30322575 -0.8889902569614778 0.2094879917766426
30545900 -0.8710873803767031 0.26974860478929247
30769225 -0.8496727920382989 0.3286375367172056
30992550 -0.824388535178776 0.3853334549730879
31215875 -0.7946028498850228 0.4405221998210665
31439200 -0.7618204732130264 0.4935255033794993
31662525 -0.7248544295195093 0.5439233602791411
31885850 -0.6855931098897448 0.5920053473750508
32109175 -0.6422289821034929 0.6372152732388789
32332500 -0.5960249165167381 0.6790642476301088
32555825 -0.5466353592195382 0.7185885199235805
32779150 -0.4951206365263523 0.753050692741327
33002475 -0.4415978823902011 0.7849758081226513
33225800 -0.38594988293564897 0.812619244867334
33449125 -0.3285012307326202 0.8371306947200629
33672450 -0.2686688066891165 0.8572513425767028
33895775 -0.20792117277507974 0.8727721227692986
34119100 -0.14725443710182212 0.8850121575982363
34342425 -0.0841680897630385 0.8924761256871822
34565750 -0.02122201042880474 0.8955545872207427
34789075 0.041437890644421146 0.8942388662226276
35012400 0.10470175772946237 0.8889845823635942
35235725 0.1669847431537294 0.878677409692317
35459050 0.22844068750297813 0.8639814921593756
35682375 0.2897037973027341 0.8458165430633036
35905700 0.3482006600571791 0.8228892022466913
36129025 0.4069710941550034 0.795967500423854
36352350 0.46306684570195095 0.7647089062609198
36575675 0.5156801492443345 0.7299215058049479
36799000 0.5672684026256801 0.6905514137119554
37022325 0.615152707261968 0.6485756815411585
37245650 0.6609286484217058 0.6022367984518048
37468975 0.7028021430532719 0.5531960071112584
37692300 0.7409666856925254 0.5013936996197764
37915625 0.7754926272000701 0.44659440461781125
38138950 0.8059924805207539 0.38990679097932146
38362275 0.8326911723877755 0.3301308518904052
38585600 0.8549241207495685 0.2691547693694889
38808925 0.8730866663849833 0.20657153485922766
39032250 0.8860553361259756 0.1426773699992572
39255575 0.8950993878252046 0.07763300909674195
39478900 0.8985816698884274 0.012656047322420517
39702225 0.8979034653888971 -0.053780780765664046
39925550 0.8922778093197421 -0.11858583731456972
40148875 0.881735626742036 -0.1836191605124053
40372200 0.8669118005465529 -0.24744963738619022
40595525 0.8469594322489031 -0.3106258785782385
40818850 0.8226413940248619 -0.37163676338580226
41042175 0.7934156803023982 -0.431149167650072
41265500 0.7608276626618161 -0.4882952837923525
41488825 0.7235156332390025 -0.5427956033301506
41712150 0.6831497341269196 -0.5942617526789697
41935475 0.6382249449077935 -0.6423727372281343
42158800 0.5904164222343592 -0.6883676179195797
42382125 0.5389966851312449 -0.7289893555130276
42605450 0.4848237839794677 -0.7665461883251384
42828775 0.42842489149605006 -0.8001768711038514
43052100 0.36990805490956935 -0.8291808353694692
43275425 0.3094001627519486 -0.8538852632139711
43498750 0.24691756055030697 -0.8739976508585341
43722075 0.18420616717940153 -0.8901150227125949
43945400 0.119340067157372 -0.9008783200449777
44168725 0.054823656345488095 -0.9067100824793584
44392050 -0.010561292974907658 -0.9089330907004184
44615375 -0.07435528206203716 -0.9047975553318451
44838700 -0.1387609502548244 -0.8972655978010653
45062025 -0.2019329146851586 -0.8852136996891045
45285350 -0.26417856582572236 -0.8688713645151297
45508675 -0.3246371753592279 -0.8478853399515046
45732000 -0.38349689063955317 -0.8222412703470109
45955325 -0.4395803075385482 -0.7927741129977539
46178650 -0.49429585335160786 -0.7592011066821193
46401975 -0.5456175709514033 -0.7221742510202488
46625300 -0.5946085838186991 -0.6817546039997521
46848625 -0.6402346226526543 -0.6385646682336588
47071950 -0.6826554349068676 -0.5916217463641252
47295275 -0.721285936346955 -0.5423779172024531
47518600 -0.7564600543209336 -0.4905751476738748
47741925 -0.787982378128672 -0.43660583335300507
47965250 -0.8150896099334781 -0.38045978228651944
48188575 -0.8389450904231572 -0.322781463894553
48411900 -0.8581595495411444 -0.2637835262703531
48635225 -0.8733059849283609 -0.20354109095790449
48858550 -0.8843840218466723 -0.14294133572403242
49081875 -0.8910609606655658 -0.08136099826132379
49305200 -0.8934744760710245 -0.01941510942992181
49528525 -0.891797883883735 0.04188291664657312
49751850 -0.8854982042704967 0.10289729133188044
49975175 -0.8749821605233833 0.16323949964025058
50198500 -0.8608689648602458 0.22307873089028846
50421825 -0.8425717158244405 0.281172475456584
50645150 -0.8201961105510633 0.3375155382570842
50868475 -0.7937085004305394 0.3926679206519653
51091800 -0.763611700874443 0.44570577886623763
51315125 -0.7306362785631315 0.49684689368696466
51538450 -0.6940729679817714 0.5448513056639372
51761775 -0.6538534089379421 0.5909341994497591
51985100 -0.6109465827598326 0.6340632840212
52208425 -0.5652565603597545 0.6736308174711678
52431750 -0.5164536372499269 0.7105801740811919
52655075 -0.4657855537467429 0.7434880363336409
52878400 -0.41277451794339654 0.7736483258922519
53101725 -0.35726829701756385 0.7994694991588617
53325050 -0.3011316770142876 0.8214202088816949
53548375 -0.24255101315816055 0.8398955815001306
53771700 -0.18342908899003563 0.853947690843141
53995025 -0.12299061394979746 0.8639860750059382
54218350 -0.06178749329443439 0.8700244565135988
54441675 -0.0007203446167326332 0.8716466785012861
54665000 0.06089295078609939 0.8695026806152196
54888325 0.12167805959052484 0.862988092118147
55111650 0.18137456467119756 0.8511153693493988
55334975 0.24174672165906644 0.8355630512477928
55558300 0.30053515109472884 0.8165061456941991
55781625 0.3577219348264064 0.7933343319394917
56004950 0.4136151055760953 0.765501681245571
56228275 0.46676132980077334 0.7344278683091994
56451600 0.5183723708509831 0.6993397881416168
56674925 0.5670605715225547 0.6605628667159616
56898250 0.6131233836361015 0.6180176701943378
57121575 0.6567929175047572 0.5721742102672027
57344900 0.6965889803041143 0.5238481100631284
57568225 0.7324510996241714 0.47302756483699
57791550 0.7653216190427717 0.41844474012217153
58014875 0.7936490179821641 0.3626517315983328
58238200 0.8187188931054576 0.3040769911678894
58461525 0.8389684894699141 0.24439538178095632
58684850 0.8550764411181896 0.1832172243880225
58908175 0.8668844795554103 0.12048036052853602
59131500 0.8741956366764818 0.057256085340603384
59354825 0.8765444116422397 -0.006320619791964205
59578150 0.8746303048284699 -0.07018370379399348
59801475 0.867990261237304 -0.1335878651769181
60024800 0.8571012697374364 -0.1965804193202784
60248125 0.8405759185153245 -0.25873357518046797
60471450 0.8206052955571417 -0.3190021135235706
60694775 0.7957142421833194 -0.37851028771939776
60918100 0.7668323049949811 -0.4356399357636831
61141425 0.7337055013719426 -0.49085125892971737
61364750 0.6966407775646466 -0.5430622556001765
61588075 0.655494787287623 -0.5927227503202779
61811400 0.6111173304785161 -0.6389366488141415
62034725 0.5640742050772509 -0.6823528867877465
62258050 0.5138446805581174 -0.7216595247655125
62481375 0.46074144158718816 -0.7575757531338416
62704700 0.40571041065540325 -0.7892034585139048
62928025 0.3469617268031468 -0.8170796537608339
63151350 0.28798278704722113 -0.8391993564986181
63374675 0.22665739231866955 -0.8589603613595945
63598000 0.16439460492443392 -0.8728568636419893
63821325 0.10238612189604121 -0.8827509186650978
64044650 0.038978346624956216 -0.8874785600025096
64267975 -0.024817068205517906 -0.8884218201592904
64491300 -0.08793852782059565 -0.8847014333428606
64714625 -0.15032169656910546 -0.8753022962661952
64937950 -0.21125230493293304 -0.8621009341897704
65161275 -0.27154790799530826 -0.8455576322933345
65384600 -0.3313532606640687 -0.8235172013878052
65607925 -0.3876683884153473 -0.7980554016567012
65831250 -0.44262896374692745 -0.7684025783441046
66054575 -0.4954157619408805 -0.7352552652060224
66277900 -0.5449414421427383 -0.6984586683991406
66501225 -0.5916260564885553 -0.6580692787027628
66724550 -0.6358022513419315 -0.6151906855880833
66947875 -0.6765911052231668 -0.5692315494977225
67171200 -0.713567610862724 -0.5201013845746868
67394525 -0.7474211534384434 -0.4687265391227931
67617850 -0.7771100434464414 -0.4163559285991538
67841175 -0.8030189852636899 -0.3609076473633883
68064500 -0.8253532816900363 -0.30418147977764576
68287825 -0.8433780146154919 -0.24659189277069946
68511150 -0.8572384979991224 -0.18735937181835338
68734475 -0.8671921183075949 -0.12808445190212522
68957800 -0.8724660648652166 -0.06804416427737128
69181125 -0.8742208169991658 -0.007947661264781369
69404450 -0.8714762274573382 0.052149573228887795
69627775 -0.8649583634711828 0.11131102687089277
69851100 -0.853839055375429 0.17010364092852687
70074425 -0.8389717098788746 0.22781014257118742
70297750 -0.8196639219438001 0.2843501783214462
70521075 -0.7972259771976543 0.3400684855278538
70744400 -0.7713458884454212 0.39288099111788194
70967725 -0.7415833357236783 0.4444065751656903
71191050 -0.7083218195684832 0.4937845957719607
71414375 -0.6716825827003738 0.5401740065196572
71637700 -0.6321083062160021 0.5844006726385073
71861025 -0.5900344242762021 0.6258174848636046
72084350 -0.5447517046071971 0.6643988077114951
72307675 -0.496252918293351 0.6994720393752335
72531000 -0.447019004669587 0.7313908984780254
72754325 -0.3947422834990722 0.7600812948864043
72977650 -0.34051002039864536 0.7841294323656374
73200975 -0.2849063026569927 0.8055898298399065
73424300 -0.22815221390458268 0.8228913776236851
73647625 -0.16928586822317926 0.8364010047999736
73870950 -0.11055394040114455 0.8450702316524045
74094275 -0.05062255921607046 0.8498524420661329
74317600 0.00841721377175771 0.8516659151599076
74540925 0.06834903289741164 0.8479846501306234
74764250 0.12776993617034374 0.8413606598149271
74987575 0.1861045475167573 0.8296531499781249
75210900 0.24444390434033864 0.8144101334349834
75434225 0.3014322014769948 0.7948639559798872
75657550 0.35797587302912937 0.7717270502873842
75880875 0.411155670455652 0.7439822970362353
76104200 0.46338773642900605 0.7134329165107508
76327525 0.5132164364307732 0.6792817464121219
76550850 0.5608176716404701 0.6406590016749246
76774175 0.6049015249761439 0.5985549605377896
76997500 0.645973959560954 0.554559617947074
77220825 0.684819974706805 0.5063216182736593
77444150 0.7199005101759889 0.4562896927394163
77667475 0.7516257873199382 0.4031125809191499
77890800 0.7788783718110884 0.34852156638991105
78114125 0.8031796896089773 0.29112184078521697
78337450 0.8220660091498913 0.2327965853328262
78560775 0.8374789448222657 0.17242125652168208
78784100 0.8487007058927866 0.11188440452894652
79007425 0.8554129967941047 0.049651131338151924
79230750 0.8570818756606681 -0.012779196854510384
79454075 0.8548661466606454 -0.07532983635558094
79677400 0.8473616321259942 -0.1370340549914621
79900725 0.836631906515611 -0.19906760440206137
80124050 0.8211259517217121 -0.2603482200001075
80347375 0.8000618908729484 -0.31956271158310656
80570700 0.77585532085678 -0.3774260518448467
80794025 0.7466157018699201 -0.4329075344576892
81017350 0.7141871144836058 -0.48716042187417286
81240675 0.677187547437449 -0.5383904329588469
81464000 0.6368690601960327 -0.5865753636310547
81687325 0.5937173207313966 -0.6321929949101267
81910650 0.5463855487584272 -0.6739582532979875
82133975 0.4962616156553646 -0.7127656765416734
82357300 0.44405711016710553 -0.7476710861231857
82580625 0.3889628953850866 -0.778270159265784
82803950 0.33159642901678765 -0.8049284386497492
83027275 0.27312515862015807 -0.8265439328810475
83250600 0.21368156781026187 -0.8455178837696642
83473925 0.15189380893877588 -0.8586901330803979
83697250 0.08991927918877152 -0.8673024089438792
83920575 0.02876473636731924 -0.8714676142245283
84143900 -0.03395724911429594 -0.8719752448383623
84367225 -0.09587742198438083 -0.8672998655339936
84590550 -0.156916609270098 -0.8583151178672087
84813875 -0.2170863728782302 -0.8448780184770268
85037200 -0.2763317667723498 -0.8278031319809165
85260525 -0.3337673596033623 -0.8053745724021486
85483850 -0.39010001280115203 -0.7801722456546796
85707175 -0.4427730053283405 -0.7500049782595701
85930500 -0.4946018261741819 -0.7161289597479271
86153825 -0.5429534318367389 -0.6805522536361098
86377150 -0.589138234420783 -0.6396791078822067
86600475 -0.6317065613084972 -0.5963914915543562
86823800 -0.6706815119444116 -0.5504247418608469
87047125 -0.7068436783581701 -0.5019985572010522
87270450 -0.7392178823383645 -0.450746018251756
87493775 -0.7677730494210312 -0.3980497614610434
87717100 -0.7925211882128453 -0.3438060034162728
87940425 -0.8136639571887285 -0.28770046052572196
88163750 -0.8304699647425853 -0.23042316247994316
88387075 -0.8430530769432629 -0.17208418461125016
88610400 -0.8513757168453547 -0.11367619692306606
88833725 -0.8564204097647976 -0.05390108242878101
89057050 -0.8564859554193545 0.004740419169381131
89280375 -0.8531809363736388 0.06376089263694644
89503700 -0.845356056228914 0.12218810033600162
89727025 -0.8335861968015429 0.18023743055418226
89950350 -0.8182999085299767 0.23644957091474328
90173675 -0.7987616562561028 0.29172665255280783
90397000 -0.775794601894183 0.34552420673473905
90620325 -0.7494830410165738 0.39734478150122465
90843650 -0.7194636255013475 0.4474008690005753
91066975 -0.6857554641146817 0.49538541877295833
91290300 -0.6500404762346121 0.5398315256216183
91513625 -0.6096916402905467 0.5827029282529207
91736950 -0.5673070364108893 0.6228668567896689
91960275 -0.522398552696788 0.6589484151949794
92183600 -0.4755127977093267 0.6931516564304162
92406925 -0.4260603098820642 0.7237492987197421
92630250 -0.37426811040287533 0.7503396245016064
92853575 -0.3217621484088405 0.7736720685981977
93076900 -0.2664977777784449 0.7936587416705138
93300225 -0.21044610387929374 0.8092393890105235
93523550 -0.15339639768355262 0.8215546038237842
93746875 -0.09616960192614334 0.8291561004718617
93970200 -0.037549465679960634 0.8333246599148372
94193525 0.020727568686543085 0.8339409747892879
94416850 0.07906835970394772 0.8296643863386208
94640175 0.13736039853966492 0.8222669989701997
94863500 0.19401405048529768 0.8101388443963531
95086825 0.25118506034208304 0.794026271649222
95310150 0.3059844681372282 0.7740892414718508
95533475 0.3606336217830717 0.7508807454862493
95756800 0.4128755868834527 0.7235871849576081
95980125 0.463081331291764 0.692190212142689
96203450 0.5110711999799975 0.6581475088346997
96426775 0.5576300756107602 0.6197119232533321
96650100 0.5998848312069224 0.5786563111213501
96873425 0.6403946097324641 0.5346642476311909
97096750 0.6772016333380233 0.4874780774569599
97320075 0.7112496254291302 0.43802290671336697
97543400 0.7416073460658819 0.3858346709304598
97766725 0.7674670971323712 0.3320619161920557
97990050 0.7905286222223804 0.2764432324636902
98213375 0.8090817505872216 0.21840622283676117
98436700 0.8235150885891198 0.1594844720288609
98660025 0.8337060568558775 0.09961874477464552
98883350 0.8397633607189054 0.04016095249941265
99106675 0.8411853823980755 -0.021895054010171777
99330000 0.8388541803050745 -0.08248158515523311
99553325 0.8311740196060149 -0.14326889826879616
99776650 0.8198034169983843 -0.2037888965183221
99999975 0.8035445824168722 -0.2632758324193244
