# HZ S RI R 50
10000000 -0.9476986704588432 0.0591140264750081
10223325 -0.9401244832492427 0.12498960709552373
10446650 -0.9276064624742086 0.18928372207278552
10669975 -0.9108800632490841 0.2529316207679308
10893300 -0.8895432016106216 0.3151559901794165
11116625 -0.8639415428824087 0.3757927049597952
11339950 -0.8340960030964516 0.43421927503846175
11563275 -0.8009585482266672 0.4900465093286564
11786600 -0.7636340866365683 0.5439084433362403
12009925 -0.7234854573330827 0.5953703849119633
12233250 -0.6789608416607592 0.6430688159815814
12456575 -0.6316781629578151 0.6880498917990682
12679900 -0.5814371665602386 0.7299628910318084
12903225 -0.5281614278104017 0.7674443142497249
13126550 -0.4732421637118681 0.8015282504224049
13349875 -0.41545482018566 0.8316575842535527
13573200 -0.3554208657806957 0.8582210012235519
13796525 -0.2938191632964584 0.8802213798117762
14019850 -0.23092226814701622 0.8979077176707735
14243175 -0.16662175867850418 0.9111911338402409
14466500 -0.10202631065992666 0.9201478617484279
14689825 -0.037007770398709706 0.925359117081308
14913150 0.028185410287752892 0.9243178522016149
15136475 0.09415743866579486 0.9191530639838721
15359800 0.15888956500945695 0.9104236147747261
15583125 0.2234318077158344 0.8962522645239246
15806450 0.28696893081728075 0.8783159503172406
16029775 0.34951472201076683 0.8554198142406537
16253100 0.40919882343971925 0.8278131641422642
16476425 0.4676677876926267 0.7963302046527417
16699750 0.5236468713851763 0.7604102020068985
16923075 0.5775230403837823 0.7212043582918244
17146400 0.6278127654665253 0.6782423033813174
17369725 0.6747936087799445 0.6314443158140256
17593050 0.719433345796364 0.5803397287873089
17816375 0.7592758310923892 0.5268325295183015
18039700 0.7962664070162813 0.4707959185681508
18263025 0.8288503233422729 0.4119934954087355
18486350 0.8567211996505487 0.35094825831554544
18709675 0.8802468193641957 0.2877176319067634
18933000 0.8993825607122157 0.22337063584117342
19156325 0.9138450059448242 0.1570032817267723
19379650 0.9235488054719222 0.09086906927493901
19602975 0.9286038351204261 0.023258059039494877
19826300 0.9283052458616182 -0.044557538446549076
20049625 0.9228121210068296 -0.11203292130651055
20272950 0.9129939685550893 -0.17898175954965484
20496275 0.8977592108372714 -0.24517445745736346
20719600 0.878258083542926 -0.31016827842636824
20942925 0.8542789415094368 -0.3732037213268304
21166250 0.8250587488063327 -0.43484416435787243
21389575 0.7921990807544356 -0.4938569032179085
21612900 0.7538941092024144 -0.5503173554106082
21836225 0.7127270709360454 -0.603908550148237
22059550 0.6673798085757592 -0.6542916059739351
22282875 0.6184857590382917 -0.7010133152041965
22506200 0.5665473433814544 -0.7440929903141232
22729525 0.5112372623299151 -0.7828254377434135
22952850 0.45346495539495146 -0.8183805741325134
23176175 0.3939632934973075 -0.8491986234300583
23399500 0.33214486590599585 -0.875411321772375
23622825 0.26796412588854857 -0.8971295217400448
23846150 0.20399870484208743 -0.9132483550928404
24069475 0.13768212735137791 -0.9253276684130457
24292800 0.07115770694817457 -0.9330156069453862
24516125 0.005051068252800034 -0.9357955042390909
24739450 -0.060953611115773514 -0.9339132001865281
24962775 -0.12658222979987124 -0.9263827049638894
25186100 -0.19132580519523024 -0.9146149380723241
25409425 -0.2556845481306397 -0.8988564113366775
25632750 -0.31799069261092267 -0.8781288823668901
25856075 -0.3785156082441205 -0.8532886741094392
26079400 -0.43756272141232705 -0.8230519157725035
26302725 -0.49312475824833407 -0.7908863171412266
26526050 -0.5464920945330921 -0.7540805894865197
26749375 -0.5967830646051945 -0.7133295124753835
26972700 -0.6448084962628213 -0.6699467490563716
27196025 -0.689013102716199 -0.6230798045373047
27419350 -0.7298283446372635 -0.572314918257354
27642675 -0.7667310990986438 -0.5204246174673465
27866000 -0.8003656019253036 -0.4661765640785153
28089325 -0.8294047629972349 -0.40970693081638554
28312650 -0.8545231003164504 -0.35035201477236594
28535975 -0.8757873783633198 -0.2908949834128055
28759300 -0.8923753111870294 -0.22948515547241866
28982625 -0.9049590893057072 -0.167636327660803
29205950 -0.913245758250176 -0.1048331627374666
29429275 -0.9169710973609944 -0.04181478449677064
29652600 -0.9169738413751958 0.02163937529454085
29875925 -0.9118771683935321 0.08406410216895654
30099250 -0.9028193703867214 0.14601557341339003
30322575 -0.8895819565156876 0.20715530510020722
30545900 -0.8719713109554518 0.2672617070912085
30769225 -0.8506049818479059 0.3263797314763552
30992550 -0.8256099310789032 0.3828730473210816
31215875 -0.7957513592157723 0.4380969415605018
31439200 -0.7633695601447679 0.49139382338727394
31662525 -0.7266394740848923 0.5417205519811725
31885850 -0.6871049636394785 0.5897885724829738
32109175 -0.6443697792804384 0.6352252301295787
32332500 -0.5979525661753434 0.6771910560923272
32555825 -0.5489550525675121 0.7161154020158794
32779150 -0.4975629952200386 0.751588557603864
33002475 -0.4441394587289405 0.7834918155246641
33225800 -0.38858952480487446 0.811497047960131
33449125 -0.33096930254778234 0.8357422165800243
33672450 -0.2718902517968689 0.856403130380543
33895775 -0.21130845255199002 0.8717391398224664
34119100 -0.15020072281519284 0.8844745623713365
34342425 -0.08709385467260315 0.8920564747230787
34565750 -0.024486197710412442 0.8946225911248198
34789075 0.03820504772764283 0.8942292696341219
35012400 0.10139478040872844 0.8889020603754397
35235725 0.16389354090326338 0.8789308026563936
35459050 0.2252424072873053 0.8653640482123565
35682375 0.28645561901210653 0.8470167821637069
35905700 0.3451885572673707 0.8243416917196053
36129025 0.40305822845533223 0.7972819473506979
36352350 0.459835387057704 0.7665623127281036
36575675 0.5130102862109864 0.7320145777825225
36799000 0.564433092475596 0.6928563602586582
37022325 0.6126178111612027 0.6510307066353014
37245650 0.6580235601161736 0.6053222467018446
37468975 0.7002917499164488 0.5563274903122063
37692300 0.7387341549377233 0.5043004844225424
37915625 0.7738115161093672 0.4501192753400343
38138950 0.8044092716509592 0.39312559413255466
38362275 0.8313692532523201 0.33356721336977657
38585600 0.8537223607641193 0.27291094852492054
38808925 0.8720258018518549 0.2102913420466139
39032250 0.8851572975576062 0.14658933436295485
39255575 0.8944410939077458 0.08187206533242375
39478900 0.8982095005271051 0.016469860952206636
39702225 0.8977871383256526 -0.04974422430146316
39925550 0.8926090493613115 -0.11469599675160462
40148875 0.8826159421294707 -0.17997614743451293
40372200 0.8679390594624554 -0.24370666069325608
40595525 0.8479205437486917 -0.30710286619129606
40818850 0.8240373640288697 -0.36800545615413843
41042175 0.7949936122294083 -0.42779463301389187
41265500 0.7629151545855452 -0.48462325896407765
41488825 0.7261953117455571 -0.5395250436432784
41712150 0.6856039141408878 -0.5911537721802019
41935475 0.6409363629177199 -0.6395344190577077
42158800 0.5930352249413441 -0.6857049750070334
42382125 0.5419868955829881 -0.7267168421218683
42605450 0.4879997235667565 -0.7646470670504226
42828775 0.4313376430793198 -0.7984237089546776
43052100 0.3725919965290656 -0.8269275872562905
43275425 0.31244629503200766 -0.8524401231452085
43498750 0.2500008355292408 -0.8730913376270371
43722075 0.1878819570042454 -0.8896323078839469
43945400 0.12295947007858996 -0.8998216802231319
44168725 0.058045932333162444 -0.9061051976030892
44392050 -0.007174858894662256 -0.908772463984297
44615375 -0.07166149505760325 -0.9047572571700363
44838700 -0.13573273767459187 -0.898096642667371
45062025 -0.19959120845061618 -0.885639050899657
45285350 -0.2615712600778243 -0.869576261943062
45508675 -0.32221201482740786 -0.8489324549403441
45732000 -0.3816644440932337 -0.8230603434102313
45955325 -0.43778953270215604 -0.79356798754149
46178650 -0.49221653396322235 -0.760430500177927
46401975 -0.5441296598534187 -0.7232517442635928
46625300 -0.5935375919127415 -0.6829090307683222
46848625 -0.6385837032249178 -0.6392728216324002
47071950 -0.6815791313901822 -0.5928372702566418
47295275 -0.7200421519492671 -0.5434022511675523
47518600 -0.7553553959605007 -0.4917583631064186
47741925 -0.7868288304868326 -0.43778869888905125
47965250 -0.8142029535645485 -0.38156782584657406
48188575 -0.8381976698837258 -0.32383643815811347
48411900 -0.8576686023532369 -0.265021528228101
48635225 -0.8729415409212727 -0.2045265453646989
48858550 -0.8839853303699757 -0.1436610894943489
49081875 -0.8909968683224696 -0.081898916540906
49305200 -0.8932853749345352 -0.020452331787602515
49528525 -0.89134619605872 0.040940072223820415
49751850 -0.8852134443539763 0.10256929222182755
49975175 -0.875087640026204 0.16300277885899572
50198500 -0.8607648339712799 0.22248000478443142
50421825 -0.8426301366429358 0.28107729808970255
50645150 -0.8200007619379978 0.3373792152317904
50868475 -0.7937275275347526 0.3925334794823776
51091800 -0.7635306468817135 0.4455688226723044
51315125 -0.7305876202650159 0.49679508181748233
51538450 -0.6941923630893949 0.5451200225030262
51761775 -0.6537251066961542 0.5908234858707543
51985100 -0.6108709972161988 0.6338724147989403
52208425 -0.5654791951691491 0.6734110261648486
52431750 -0.5164989176437206 0.7104591820260429
52655075 -0.4658360998927681 0.7433725332527746
52878400 -0.41269305887948676 0.7735849536493504
53101725 -0.3578330546378333 0.7994408256509202
53325050 -0.3006628677478438 0.8215222706154425
53548375 -0.243053505840157 0.839889634326864
53771700 -0.18366357087910193 0.8536877004238727
53995025 -0.12325861289002761 0.8636402729021778
54218350 -0.062279283870363994 0.8704283558960475
54441675 -0.0017107564688138674 0.8715053589847152
54665000 0.06077131036633545 0.8692316389850847
54888325 0.12100080794662461 0.8630604645969089
55111650 0.18086453348137901 0.8513986638242599
55334975 0.24064066824748342 0.8357862076310114
55558300 0.2996508352145252 0.8175057629868634
55781625 0.35641058578870216 0.7937519317490721
56004950 0.41246458007867565 0.7662045940168818
56228275 0.46596610081195977 0.7350462288267542
56451600 0.5171340514009084 0.700145514860621
56674925 0.5660946571694678 0.6614991396175491
56898250 0.6124068550142511 0.6194822708686133
57121575 0.655161074722052 0.573845411291083
57344900 0.6952416492051589 0.5256036822268719
57568225 0.7310905854045214 0.4747004127791675
57791550 0.7639344461354582 0.4211296924131684
58014875 0.7925407126497921 0.36519133439833273
58238200 0.8176362695745136 0.3070479466232389
58461525 0.838313109792793 0.247540432678617
58684850 0.8544644030659833 0.18667220105646032
58908175 0.8666566060946587 0.1246011792082994
59131500 0.8737296415584546 0.061500349576459654
59354825 0.8767060985024349 -0.002136883382588698
59578150 0.8749048433274542 -0.06570881270146466
59801475 0.8689237250359699 -0.1291246387444153
60024800 0.858328560763684 -0.1918343601497311
60248125 0.8423850103216417 -0.25364182274083635
60471450 0.8226958157708737 -0.3143565665683086
60694775 0.7982325200236569 -0.3732694119449043
60918100 0.7696597101794186 -0.4306575928644053
61141425 0.7371212576846099 -0.485631141509432
61364750 0.7004683660568002 -0.5381161534579978
61588075 0.6601028034703736 -0.5878053263824767
61811400 0.6163271744971508 -0.6342687659136376
62034725 0.570160840958985 -0.6777189417524702
62258050 0.5196663759905332 -0.717717545751219
62481375 0.4669815343978634 -0.7536347812250941
62704700 0.41232374384953996 -0.7856735328156601
62928025 0.35475881649398716 -0.8141139736785975
63151350 0.2957477014330946 -0.8368486904979515
63374675 0.23479859458749827 -0.8560577889924057
63598000 0.17278538535300136 -0.8714549928024734
63821325 0.1105305935240878 -0.881277033569047
64044650 0.04770327175195319 -0.8869891924518989
64267975 -0.015856959109138393 -0.888403326833193
64491300 -0.07920401147339072 -0.8852826566530916
64714625 -0.14162050269668783 -0.877239651396085
64937950 -0.20272773882314582 -0.8639573264884607
65161275 -0.26270377127125355 -0.8478362759416036
65384600 -0.32272867097982205 -0.8273858859708962
65607925 -0.3792584140580939 -0.8025618637518237
65831250 -0.4347776008336066 -0.7730868408540117
66054575 -0.48767660579921385 -0.7405679331707807
66277900 -0.5375667935342313 -0.7041610349839057
66501225 -0.5846699449414317 -0.6641836260766506
66724550 -0.6291536768785216 -0.6218922495704086
66947875 -0.6706237704170198 -0.5763349420191703
67171200 -0.7080624123831568 -0.5276377318583549
67394525 -0.7424297877694835 -0.4766710756217835
67617850 -0.772809763973555 -0.4241650335603691
67841175 -0.7993336349947928 -0.36881378722037295
68064500 -0.8223087481559155 -0.31268528644306476
68287825 -0.8404479478833308 -0.254972132886791
68511150 -0.8552402790376776 -0.1960540882697384
68734475 -0.8657672895194772 -0.13668205374343795
68957800 -0.8716473807202495 -0.07640917152390699
69181125 -0.8739215025513168 -0.016403535767924856
69404450 -0.8718778907566677 0.04390452167929707
69627775 -0.8655251348589236 0.10329798956750641
69851100 -0.8552870533690224 0.1623162498404249
70074425 -0.8409586403079361 0.22011215671931111
70297750 -0.8218052359325697 0.27689940250963757
70521075 -0.8001922029851425 0.332867031805255
70744400 -0.7741000069189578 0.38591826725543255
70967725 -0.7450432395442548 0.4378850619870457
71191050 -0.712045529864074 0.4876964249389379
71414375 -0.6760263285543512 0.5342876906981568
71637700 -0.6365377944262697 0.579394977927048
71861025 -0.5946551609517862 0.6215288399788215
72084350 -0.5494207634445214 0.6603192500990408
72307675 -0.500474462947447 0.6953832044591888
72531000 -0.452279978428896 0.7277705353327977
72754325 -0.3998385896080978 0.7570395027431842
72977650 -0.3456833792013526 0.7819550538844141
73200975 -0.2898370400521758 0.8036465089303972
73424300 -0.23300383726454954 0.820976650036236
73647625 -0.17446697711341858 0.8351410268791021
73870950 -0.11485427632542634 0.8440803853753028
74094275 -0.056118069585323165 0.8490023656976095
74317600 0.003752817764111916 0.851329332690434
74540925 0.06385669356107143 0.848097240848881
74764250 0.12351557283516841 0.8417723077489994
74987575 0.18204125573139143 0.8308188524788651
75210900 0.24060672428411853 0.8153595581081833
75434225 0.29785648949880267 0.7959750000212132
75657550 0.3542621067006625 0.7727247126806837
75880875 0.4082850493795935 0.7455254925344736
76104200 0.46063304020316354 0.7150383568596256
76327525 0.5105973158005898 0.6805780200978022
76550850 0.5582209805607351 0.6424953966179089
76774175 0.602730639153083 0.6003548402453831
76997500 0.6443723746476715 0.5562147996571709
77220825 0.6832487705473551 0.5084233178932956
77444150 0.718224674421018 0.45814093844715587
77667475 0.75021805611525 0.4060813938757878
77890800 0.7774787515775319 0.3505446412051956
78114125 0.8020087175902755 0.2932227774437849
78337450 0.8212293857155193 0.23476520952119084
78560775 0.8369225668842158 0.17481125178296836
78784100 0.8483557755977674 0.1137562115000155
79007425 0.8551205454479527 0.05164428115574114
79230750 0.8572953197479987 -0.010679511574482775
79454075 0.8547040814455235 -0.07327876773130966
79677400 0.8479390242755975 -0.13494289246029045
79900725 0.8369724639448555 -0.1970762215832408
80124050 0.8212567929124474 -0.25791456698207404
80347375 0.8008169103672942 -0.3175952785653389
80570700 0.776928086679228 -0.37574011203684715
80794025 0.7478983244108618 -0.43139996819170284
81017350 0.7152489276163474 -0.4856076025236826
81240675 0.6789480882223041 -0.5365581346045531
81464000 0.6386146757248172 -0.5851580699512768
81687325 0.5952512193737126 -0.6309288956058137
81910650 0.5482615513543155 -0.6728070335755555
82133975 0.49804705330415067 -0.7111345166617029
82357300 0.4458051169582319 -0.7466621787217436
82580625 0.39132638284080085 -0.7773315398293336
82803950 0.3342436070492007 -0.8030849212181498
83027275 0.2755918456758814 -0.8253924269148356
83250600 0.21677742682296774 -0.8447760858018559
83473925 0.15501580781121538 -0.8581364456118477
83697250 0.09401408113457453 -0.8667779562116329
83920575 0.03186137858891516 -0.8720496705217199
84143900 -0.03064287345688075 -0.8720057834722138
84367225 -0.09249899791860004 -0.8678451994191356
84590550 -0.15358400529133598 -0.8588446342272409
84813875 -0.21405401437325405 -0.8459641356052736
85037200 -0.27306669314540777 -0.8292181063952521
85260525 -0.33028631725919294 -0.8068365104683644
85483850 -0.3866819443449151 -0.7817325482054608
85707175 -0.4398670683779927 -0.7520865362683581
85930500 -0.49067305932145644 -0.7190793044427788
86153825 -0.5396612058140811 -0.6828756449127821
86377150 -0.5860071351857062 -0.6427657428368323
86600475 -0.6284064327547632 -0.5999096094786296
86823800 -0.6680859693856215 -0.5541572772147432
87047125 -0.7047580278829876 -0.5062041304286623
87270450 -0.7368232372858776 -0.45484407977107966
87493775 -0.7654407974956944 -0.4025477745088704
87717100 -0.7905215060697308 -0.34819459533546554
87940425 -0.8118592574742951 -0.29227707237748474
88163750 -0.8292671925049543 -0.23514046512292208
88387075 -0.8421432205080646 -0.1769987650335774
88610400 -0.8512628568313355 -0.11894866686213604
88833725 -0.8564490974629012 -0.05920122628407784
89057050 -0.8567858735003964 -0.00028786190873690337
89280375 -0.8539714219383497 0.058987375078113
89503700 -0.8464544676595327 0.11663161431123825
89727025 -0.8350561878642532 0.1751432657522086
89950350 -0.8198061253765002 0.2316990245038108
90173675 -0.8008859151661457 0.28666701060177685
90397000 -0.7777511717126991 0.34063192890301236
90620325 -0.7520370643742319 0.39271458102620843
90843650 -0.7221130882170353 0.4427107655043895
91066975 -0.6890477546649315 0.4909696193057909
91290300 -0.6531529361538294 0.5357628341414327
91513625 -0.613590479081542 0.5788589590815333
91736950 -0.5718299755455473 0.619209970933979
91960275 -0.5266592324021404 0.6555982343123314
92183600 -0.4800228270707456 0.6899804796011582
92406925 -0.43104547626712814 0.7208119781180524
92630250 -0.3792294197725569 0.7474722949531439
92853575 -0.32648436744007214 0.7714016027610962
93076900 -0.2716896848213777 0.7915854401089546
93300225 -0.2158514929766685 0.8079370892483088
93523550 -0.15903594151142947 0.8202960968833685
93746875 -0.10139412335126201 0.8288866490482804
93970200 -0.04287915542725927 0.8327130191474602
94193525 0.0154105482391659 0.8340435813757956
94416850 0.07321979256414345 0.830140344416539
94640175 0.13188015909781295 0.8229851039262202
94863500 0.18840324359564092 0.8116222685811997
95086825 0.24586266919284044 0.7958015579143219
95310150 0.3010738055754227 0.7766595817487385
95533475 0.3553688362776645 0.7532479664148145
95756800 0.40812941228037986 0.7267472996471293
95980125 0.4585785976937581 0.6950730265229277
96203450 0.5068121959928209 0.661565933572556
96426775 0.5530376320791436 0.6232436086218289
96650100 0.5962061591970451 0.5824246163982495
96873425 0.636453933297333 0.5389376141038789
97096750 0.6740124599458028 0.49210688264668356
97320075 0.7080209372821431 0.44247987673340383
97543400 0.7387671854251194 0.39081504592738747
97766725 0.7655126773292228 0.33744342282995016
97990050 0.7887256481627906 0.2817816726277754
98213375 0.8073447223119368 0.22378035059263826
98436700 0.821875159287732 0.16499964800894612
98660025 0.8329272885233043 0.10534430344190135
98883350 0.8393556815159995 0.04524718438063771
99106675 0.8411561870509928 -0.01568173227945435
99330000 0.8392444056483389 -0.07708242905340848
99553325 0.8322750486499767 -0.13732217146942843
99776650 0.8209443990636582 -0.19800481220925187
99999975 0.8051553284729941 -0.2572731520523352
