# HZ S RI R 50
10000000 -0.8246893441403071 0.07832031669249767
10223325 -0.8095017672917754 0.16148118552642793
10446650 -0.7863240509681487 0.24250228847112112
10669975 -0.7562709466667221 0.32013677445894556
10893300 -0.7191461552843514 0.3938083882359259
11116625 -0.675734416320211 0.46318663935606436
11339950 -0.6269147644722862 0.5271528404506781
11563275 -0.5741169824271758 0.58509259000213
11786600 -0.5166384021955064 0.6376724847203395
12009925 -0.45682091164976 0.6844419495831475
12233250 -0.3932901687720874 0.7244260953193928
12456575 -0.32863791255951597 0.7583513835361656
12679900 -0.26263264120840485 0.7867991484618246
12903225 -0.19579854863866128 0.808429785506427
13126550 -0.1295403331049084 0.825291343763594
13349875 -0.06335953610829798 0.835979119259638
13573200 0.002159213386776539 0.8416380478982728
13796525 0.06641720486081676 0.8425457598869929
14019850 0.12936688859524723 0.8386906617121457
14243175 0.1905739528364088 0.8303271660516786
14466500 0.24881630906435462 0.8186919268490491
14689825 0.3058214550994526 0.8036174435573217
14913150 0.3597225472736905 0.7842011084333782
15136475 0.4120658812166454 0.761423039011955
15359800 0.46136662776713144 0.7370259579272449
15583125 0.5085926807406265 0.7091715734410078
15806450 0.5532784336037135 0.6795526689658861
16029775 0.5949510205831371 0.6476999915388868
16253100 0.6340078269148719 0.6134056179852584
16476425 0.6700926861624905 0.5785867856919245
16699750 0.7039289940592608 0.5410210963040287
16923075 0.7354837440200582 0.503116879064521
17146400 0.7642259106793505 0.46324909401939285
17369725 0.7896822363230244 0.422557907523256
17593050 0.813550915568421 0.3806212327468342
17816375 0.8337847492215774 0.33807029794683285
18039700 0.8525222699597818 0.2948476566070943
18263025 0.8686772940287936 0.25113951862721784
18486350 0.8821309754656067 0.20650212155277403
18709675 0.892689882224719 0.16211876426347396
18933000 0.9011928526091261 0.11726507964191922
19156325 0.9074943717633942 0.07161083803774038
19379650 0.9116038842307965 0.026344937447689395
19602975 0.9130328969892526 -0.01909024197249164
19826300 0.9116244746145241 -0.06506774400753831
20049625 0.9083961337754163 -0.110370218089864
20272950 0.9023427773401728 -0.15604095530012982
20496275 0.8938165950798393 -0.20118413038289337
20719600 0.883162614116528 -0.24617530425531264
20942925 0.8699996468757439 -0.29063772145199884
21166250 0.853558928472336 -0.3347797455716271
21389575 0.836055668129379 -0.37804517627779777
21612900 0.8146302095453558 -0.4214675454117019
21836225 0.791536552664074 -0.4634812710243048
22059550 0.7649193053101553 -0.5043030440888824
22282875 0.7362207846848802 -0.5445730351428261
22506200 0.7049105321067767 -0.5834553577498596
22729525 0.6703034431223633 -0.6202921396337094
22952850 0.633785276555743 -0.6568109236393155
23176175 0.594358036284247 -0.6907452313351031
23399500 0.552516802088263 -0.7234152930096996
23622825 0.5071527100378609 -0.7539148761528907
23846150 0.45942650870743473 -0.780651124902988
24069475 0.40893645592220074 -0.8063269923223877
24292800 0.35593287652840006 -0.8285480108010655
24516125 0.3013084301556432 -0.8473438607269956
24739450 0.24362581212879056 -0.8628195675959195
24962775 0.18410417259558345 -0.8741822794412645
25186100 0.12234264112369315 -0.8814968357654397
25409425 0.05879755641422381 -0.8848234473388948
25632750 -0.005702618297371898 -0.8831902097781292
25856075 -0.07226259877565135 -0.8762869822910049
26079400 -0.139452541246429 -0.8636251172746423
26302725 -0.20597615444237993 -0.8460938136901194
26526050 -0.2722119120938858 -0.8229260957152754
26749375 -0.338161634132648 -0.7928196123615033
26972700 -0.40194204902472225 -0.7574430241160962
27196025 -0.46374082655253535 -0.7158265773589257
27419350 -0.5232997817513827 -0.6673663201926465
27642675 -0.5789900602806601 -0.6139426923082384
27866000 -0.6301380654522043 -0.5543684857004585
28089325 -0.6761955309748471 -0.4897238451079545
28312650 -0.7168055596756937 -0.4199250288668655
28535975 -0.7505811986472364 -0.3460117987294049
28759300 -0.7780660845679966 -0.2686304340288594
28982625 -0.7977141004486024 -0.18871368211131972
29205950 -0.8100965665318905 -0.10689296401455849
29429275 -0.8140737756686282 -0.023724295033032475
29652600 -0.8103008227911701 0.05950622320432221
29875925 -0.7984395969822816 0.1415310535430273
30099250 -0.7790001259013598 0.22159808063879124
30322575 -0.7518721736440199 0.29909520427125674
30545900 -0.7179855529000968 0.3730669183456205
30769225 -0.6777506854570516 0.4434175500966288
30992550 -0.6321415451991971 0.5079484737207908
31215875 -0.580708187406202 0.5671003277066051
31439200 -0.5254150090877157 0.6218670866380737
31662525 -0.4661278608406387 0.6699847875009356
31885850 -0.4040359700815233 0.7121304979084573
32109175 -0.34011777489139333 0.7481072491542556
32332500 -0.2739525927124487 0.7774403201928161
32555825 -0.20671380618990373 0.8017868134865348
32779150 -0.1395586516362681 0.8189495153321793
33002475 -0.0731066781659447 0.8314205516537011
33225800 -0.007397636308577231 0.8381401399100711
33449125 0.05790157506695424 0.8395994172094904
33672450 0.12169528640147 0.8362334091472666
33895775 0.18366714919245117 0.8279974314692945
34119100 0.24316697158193074 0.8173816063715382
34342425 0.3012856809717543 0.800847158141978
34565750 0.3560622545332602 0.7818114457911064
34789075 0.40941177115948 0.7598481617469857
35012400 0.45950797739370275 0.7339043758538137
35235725 0.5070779537575021 0.7057045459087745
35459050 0.5518668142776757 0.6752808301096946
35682375 0.5943137699832001 0.6427464554767615
35905700 0.6331807124187976 0.6080622482170485
36129025 0.669993906676571 0.5719228769658654
36352350 0.7042149068702462 0.5334831258437223
36575675 0.7352836465959446 0.49527824949831883
36799000 0.7636766266897671 0.4546597853289633
37022325 0.7892599195059093 0.41330694650973065
37245650 0.812594725419096 0.37059100946666357
37468975 0.8330061269019313 0.3275262929427485
37692300 0.8504842931778779 0.28398633586089933
37915625 0.8658238343971356 0.2399802079748153
38138950 0.8785378619563977 0.19516315813449975
38362275 0.8887900283299728 0.15001957806995994
38585600 0.8966401229921704 0.10516771908519058
38808925 0.9025439730841469 0.05978110868019621
39032250 0.9050240508564829 0.014220368783994146
39255575 0.9062578544266555 -0.03136711211013181
39478900 0.9039130637918458 -0.07710946406641044
39702225 0.8995402581573432 -0.12299979181276831
39925550 0.8929014332787553 -0.16735070973848482
40148875 0.8836988491629063 -0.2124490374450193
40372200 0.8719220723689728 -0.25731938706792434
40595525 0.8584695214274628 -0.3013159647946501
40818850 0.8415481399523087 -0.3444570541074662
41042175 0.8222597172536036 -0.38735688481654285
41265500 0.8009526122008487 -0.42936952175913
41488825 0.7771070877276913 -0.47054593194527733
41712150 0.7511697730226379 -0.5108416442832026
41935475 0.7217183491732593 -0.5498133792174789
42158800 0.6902735435741565 -0.5876467468378691
42382125 0.6559357315784616 -0.6237502989082827
42605450 0.6188826015577826 -0.6584601917620255
42828775 0.5798691794903775 -0.6918113533163122
43052100 0.5377080874878595 -0.7222196533515071
43275425 0.4932067945242046 -0.751110398534584
43498750 0.446040512209949 -0.7779449401477129
43722075 0.397500056640861 -0.8019656518795301
43945400 0.3447544154786244 -0.822565210671068
44168725 0.2907620140447341 -0.8402919944815039
44392050 0.2336851209745879 -0.8555929111252696
44615375 0.17597987405075488 -0.8650529877950343
44838700 0.1157579895474315 -0.8723979803558799
45062025 0.05376796945829747 -0.8749845524573197
45285350 -0.009101865509267403 -0.87300023289611
45508675 -0.07341076071429148 -0.8661818941448424
45732000 -0.13900735826742303 -0.8543631998379067
45955325 -0.203308089266375 -0.8363695808026471
46178650 -0.2682783920379225 -0.8133119520354184
46401975 -0.3321277403536221 -0.7838978643704991
46625300 -0.3945238052364911 -0.7493103544930289
46848625 -0.4548246755430955 -0.7090853897405571
47071950 -0.5125506079686782 -0.6625795294639643
47295275 -0.5666295206524081 -0.6107977681900779
47518600 -0.6170672107270342 -0.553012966302183
47741925 -0.6627320872704923 -0.49075017322815845
47965250 -0.702266893178504 -0.42298979118163255
48188575 -0.7367221929953565 -0.35126819741002974
48411900 -0.7642526597378525 -0.2761802364026984
48635225 -0.7845931454109762 -0.19768940172783167
48858550 -0.7976928058166052 -0.11755584989060854
49081875 -0.8028954581684974 -0.035779983588335354
49305200 -0.8003767410582157 0.04571190500117407
49528525 -0.7900910272524152 0.12622677545971273
49751850 -0.7723540298586771 0.20615753986660057
49975175 -0.747226857013615 0.2827628130061516
50198500 -0.7148592720910679 0.35674861056556517
50421825 -0.6763733098606671 0.42675788753435756
50645150 -0.6317201918890561 0.4909831199427539
50868475 -0.5819348467258214 0.5518465021356816
51091800 -0.527683755510596 0.606359998594432
51315125 -0.4694926020712512 0.6551376504190917
51538450 -0.4087509880610219 0.6981515325823242
51761775 -0.3445385392986742 0.734718983259131
51985100 -0.2794130345840957 0.7652484049027213
52208425 -0.21307039017921672 0.7896908925152536
52431750 -0.14576307314568124 0.8090014671943515
52655075 -0.0792093639578932 0.8213189405654456
52878400 -0.012877132917317322 0.8290971502948573
53101725 0.0529157357226923 0.8311420652130028
53325050 0.11630548970865574 0.8286149238399076
53548375 0.1790092015618657 0.8215725111494626
53771700 0.23899277462540658 0.8097080865581959
53995025 0.29763997868890213 0.7940196412141749
54218350 0.35315917840587413 0.7750070813066572
54441675 0.4056533109498894 0.7527293427555515
54665000 0.45707822357538547 0.727119374111632
54888325 0.5047540198430037 0.6998449718806422
55111650 0.5499213021313353 0.6688451372450359
55334975 0.5917577902692543 0.6359086713912662
55558300 0.6315298954841279 0.6012497215345655
55781625 0.6682839601379326 0.565121069164739
56004950 0.7025298640405667 0.526808241206184
56228275 0.7329972706009699 0.4878074690982611
56451600 0.7618223511178022 0.447304136920463
56674925 0.787586472612708 0.4053822973619646
56898250 0.8104623939338252 0.3628953662545368
57121575 0.830564057767139 0.31949566716292904
57344900 0.8484205454991808 0.27523522726493393
57568225 0.863435656752705 0.23145220066182629
57791550 0.8761024165325665 0.1863985436068821
58014875 0.8857290659383504 0.14169910601020685
58238200 0.8937277106142242 0.09601423663061182
58461525 0.8987878340425385 0.05067684976198477
58684850 0.901192383532009 0.005382407574127882
58908175 0.9018265214593526 -0.04046075984855592
59131500 0.8993801864963902 -0.08529974865329978
59354825 0.8946587318535272 -0.13082748044440898
59578150 0.8877713170889885 -0.17602787725541102
59801475 0.8781480910083622 -0.22022757319738198
60024800 0.8664929097707766 -0.2641630480806691
60248125 0.8515721628179511 -0.30776642597934933
60471450 0.8349741236109676 -0.3505448154276328
60694775 0.8158302034146946 -0.3931840039197416
60918100 0.7944275966566834 -0.43436506983539885
61141425 0.7705350392382725 -0.47488919684386144
61364750 0.743686655014952 -0.5142660315713943
61588075 0.714469384243988 -0.5528030166476754
61811400 0.6826487214959844 -0.5898377400173828
62034725 0.6491432522930518 -0.6260327944110857
62258050 0.6124929997233745 -0.65974293978115
62481375 0.573656995050998 -0.6916344048802584
62704700 0.5322407977036335 -0.7222075212061212
62928025 0.4883033872882671 -0.750413498425447
63151350 0.4418724478153256 -0.7755363091761764
63374675 0.392950459539669 -0.7995848719811556
63598000 0.34131769119995525 -0.8198219293326838
63821325 0.28814876619901036 -0.837148291146095
64044650 0.23273647028967068 -0.8505488592952257
64267975 0.17510869305915966 -0.861267858962991
64491300 0.11600642106309184 -0.8681432921580412
64714625 0.05502612253633798 -0.870065703638796
64937950 -0.006245195903142356 -0.8673360411057512
65161275 -0.06840872243567836 -0.8612602374207543
65384600 -0.13349187207503874 -0.849904040315838
65607925 -0.19629110485134785 -0.8331295551167591
65831250 -0.26046655672672747 -0.8098392811999968
66054575 -0.3230137586378047 -0.7821551916080655
66277900 -0.38386649430887365 -0.7483606851373781
66501225 -0.44313911503957376 -0.7088110607426813
66724550 -0.5000969475179501 -0.664601724493076
66947875 -0.5542074975142143 -0.6137133024947151
67171200 -0.6040649502102319 -0.5574171989483531
67394525 -0.6494366916933303 -0.4954339372437412
67617850 -0.6891104921899712 -0.42996616701332324
67841175 -0.7232951706946812 -0.3598650667053054
68064500 -0.7513203500883396 -0.286111517219123
68287825 -0.7723365896033938 -0.20962382596815737
68511150 -0.7859295574061683 -0.13041790626888342
68734475 -0.7923699358870931 -0.05039312235615123
68957800 -0.7908568624614185 0.03013247778899347
69181125 -0.7820754186878863 0.11049318660945161
69404450 -0.7653839544744833 0.1892081842188553
69627775 -0.7417649374892372 0.26573727725811336
69851100 -0.710417115258576 0.3392132009793045
70074425 -0.6728196844353205 0.4089808486045478
70297750 -0.6285305896387844 0.4740906936472977
70521075 -0.5804096993459481 0.5355606110793204
70744400 -0.5270293816670776 0.5904045395084938
70967725 -0.46937155829337435 0.6399668326131295
71191050 -0.40822969815839355 0.6840832754119918
71414375 -0.34513053136159383 0.7205658968547128
71637700 -0.2801216635954296 0.7521549242865959
71861025 -0.21374892259362416 0.7778479405192237
72084350 -0.14655839564206583 0.7968757285417838
72307675 -0.078880468757046 0.8093344596599007
72531000 -0.013844304112505416 0.8181920398750814
72754325 0.052455446846538335 0.8208991796395404
72977650 0.11669412518711796 0.8180883436255635
73200975 0.17970540321424225 0.810814717958071
73424300 0.23969308778356838 0.7993956527003285
73647625 0.2985828042837672 0.7840141433822583
73870950 0.35476882505953455 0.7646908634398777
74094275 0.4082009575554013 0.7421302392272093
74317600 0.45877778838092126 0.7172366846017872
74540925 0.5059858145397212 0.68809430592785
74764250 0.5514595402479746 0.6577756501425531
74987575 0.5934416272038698 0.624681927057459
75210900 0.6328186151681907 0.5897633603835726
75434225 0.6700679646182074 0.5528787042567707
75657550 0.7037449934873364 0.5143299647366445
75880875 0.7346204230264713 0.47484726251208953
76104200 0.7626788731887405 0.43413357431602795
76327525 0.7881956649758168 0.39237794068879583
76550850 0.8107740129466029 0.3496747919684312
76774175 0.8299928638281125 0.30625063044655776
76997500 0.8473418319239724 0.26252802072265163
77220825 0.8622504767921865 0.2179291891832313
77444150 0.873991559738374 0.17320042947587275
77667475 0.8837711940121906 0.1283481354291244
77890800 0.890657299567123 0.08283378650269742
78114125 0.89551083333739 0.03717103997130801
78337450 0.8972316373323768 -0.007673127727403106
78560775 0.8971889329259248 -0.05315651418045623
78784100 0.8946178278114275 -0.09832333153754244
79007425 0.8896353535748327 -0.14320443283272904
79230750 0.8822608711803214 -0.18748572783982603
79454075 0.871460835907889 -0.23182481586815798
79677400 0.8591053152423703 -0.2753479088654719
79900725 0.8452645590797436 -0.3185469211803925
80124050 0.8280382431942359 -0.3609053706022039
80347375 0.8080845320021977 -0.40258005057192614
80570700 0.786886546037553 -0.4434396923431916
80794025 0.7621558409366823 -0.48319150578698894
81017350 0.7361542379915123 -0.5223478329047203
81240675 0.7065987689585582 -0.5595360157808437
81464000 0.6755239136173455 -0.5956787382033216
81687325 0.6421290799927718 -0.6309849356327434
81910650 0.6055945864341665 -0.6643195032238344
82133975 0.5665828376934066 -0.6955924592430277
82357300 0.5260908047169652 -0.7254324217505709
82580625 0.4824782802946516 -0.7524696402701516
82803950 0.43652796316129905 -0.7771543218938055
83027275 0.38842547833192254 -0.7997222781754855
83250600 0.3392858217171635 -0.8203926022282315
83473925 0.2869826127954415 -0.8368454302099871
83697250 0.23255100591395006 -0.8505399605389806
83920575 0.17698020019536567 -0.8605434144337958
84143900 0.11888306421379823 -0.8670060529798861
84367225 0.059215605753615584 -0.8690712388945634
84590550 -0.0005746082221810982 -0.8678442448056484
84813875 -0.06181959615100232 -0.8617328670019812
85037200 -0.12364722601595803 -0.8509544588654624
85260525 -0.18603339489967427 -0.8339370451775678
85483850 -0.24898568451689662 -0.813618536018146
85707175 -0.3096453122956434 -0.7864807606973826
85930500 -0.3690361989237661 -0.7546993157706641
86153825 -0.42843930883305065 -0.7173729153106069
86377150 -0.4847776372673259 -0.6738441938614866
86600475 -0.5377955442176081 -0.625718205379253
86823800 -0.5873924027073264 -0.5712859825808455
87047125 -0.6334414460710718 -0.5122455173405082
87270450 -0.6733388036793638 -0.44843254274797806
87493775 -0.7081520646750972 -0.3801689164738833
87717100 -0.7369036087973018 -0.3087509743672775
87940425 -0.7596651831541091 -0.23393529607732555
88163750 -0.775522636423362 -0.15702276656235736
88387075 -0.7840030117917388 -0.0778435919092073
88610400 -0.7846464961167872 0.0015975268694119124
88833725 -0.7779705387746606 0.0808626569761575
89057050 -0.7635638116944301 0.15947381474172848
89280375 -0.74228689951312 0.23653288625426885
89503700 -0.713683249930833 0.3100563674912614
89727025 -0.6781332598129437 0.3811944241786761
89950350 -0.6368200280229851 0.4475743764245707
90173675 -0.5897218625004585 0.5091555999547812
90397000 -0.5379621335820056 0.5660879601585986
90620325 -0.4821791129786662 0.6168796948291717
90843650 -0.4225496627034405 0.6624979212371165
91066975 -0.3597729759538611 0.7016037014974356
91290300 -0.2959835811559834 0.7345499877129001
91513625 -0.22965880057531968 0.761270904277493
91736950 -0.16241500130748676 0.782444450613645
91960275 -0.09563261740175899 0.7972082223265295
92183600 -0.02851501669396449 0.8068370374699726
92406925 0.03745602625460524 0.8110665657970232
92630250 0.10200492591973431 0.8093622664131785
92853575 0.16497954776071774 0.8036220034807546
93076900 0.2266474046709097 0.7927785521690399
93300225 0.28578568417165495 0.7782588889722467
93523550 0.3430348747315343 0.7594833067760073
93746875 0.3969716829519393 0.7371965619983709
93970200 0.4487965533624393 0.7115370590214495
94193525 0.49760472102016584 0.6841725957867609
94416850 0.5428438597518102 0.6532823312045553
94640175 0.5865772989123578 0.6200961532675243
94863500 0.6260197500077623 0.5853115058208211
95086825 0.6635657008922496 0.5481493532326167
95310150 0.6975774809350682 0.5095793801318956
95533475 0.7290812610364205 0.4698110984182311
95756800 0.757505016423233 0.42884880053210095
95980125 0.7829690428863625 0.386672912346676
96203450 0.8060920472930648 0.34408672662634937
96426775 0.8262929366284109 0.2997646626741965
96650100 0.8431215813116231 0.25533061429060805
96873425 0.8582734016061091 0.2109717810360368
97096750 0.8701867670653151 0.1658668698553882
97320075 0.8796233275450734 0.1204154159989306
97543400 0.886413354701422 0.07532336182051153
97766725 0.8910379830064048 0.02974741484443457
97990050 0.8930850376030763 -0.016026478237755562
98213375 0.892501545354113 -0.06137002932439944
98436700 0.8893757754662778 -0.10640306824297639
98660025 0.8841647977377568 -0.15136424182324576
98883350 0.8766587085743175 -0.19529455974045454
99106675 0.8667172376576341 -0.2395878578460215
99330000 0.854117712213498 -0.2832993190659846
99553325 0.8392191691411129 -0.32602222284879817
99776650 0.8219835392932561 -0.36849029347153545
99999975 0.8018326350366003 -0.4094476230233157
