# HZ S RI R 50
10000000 0.9179660232332671 -0.06796559276064347
10223325 0.9142100382362575 -0.11395013044705801
10446650 0.9091452184943447 -0.1594150704064374
10669975 0.9009048784491519 -0.20560074273852083
10893300 0.8904648221818121 -0.2504826695432106
11116625 0.8767400365022853 -0.2957088849469278
11339950 0.8609704739881011 -0.34057034934829195
11563275 0.8424704644308775 -0.3850915699677902
11786600 0.8216071734895236 -0.4287017493288249
12009925 0.7979547651116878 -0.4711068722499917
12233250 0.7713918623684874 -0.5128543400541951
12456575 0.7419546955724234 -0.5536454848314603
12679900 0.709698308118914 -0.5932115620229547
12903225 0.6751370654893835 -0.6311781096446979
13126550 0.6372532422737807 -0.6684640387521683
13349875 0.5970593275821772 -0.7028424898133502
13573200 0.553275531701146 -0.7360673998149517
13796525 0.5069132243306853 -0.7667616407890714
14019850 0.45751944343261475 -0.7947469573521821
14243175 0.4063803076529952 -0.8196977537781485
14466500 0.35154825900438513 -0.8417296317520848
14689825 0.294878323170712 -0.8602845872837833
14913150 0.23500374201836244 -0.8758269974197674
15136475 0.1729248639044255 -0.886770550509473
15359800 0.10886143404194629 -0.8935748421522103
15583125 0.04375023881899163 -0.8960747235464224
15806450 -0.023075696887143504 -0.8925722939992735
16029775 -0.09044965560993747 -0.8838620083864029
16253100 -0.15905848934954056 -0.869977959174478
16476425 -0.22776639202478646 -0.8496863446016297
16699750 -0.2950173418970362 -0.823880338526296
16923075 -0.3619571299231312 -0.7910874851678766
17146400 -0.42693106971566563 -0.752544366618935
17369725 -0.4897214924664587 -0.707871892989666
17593050 -0.5483938477335564 -0.6567755425527959
17816375 -0.6037828699105582 -0.5996208425975758
18039700 -0.6540571641021675 -0.5363925750809206
18263025 -0.6987466948602282 -0.4684437575081852
18486350 -0.7373809408493127 -0.3956827092038785
18709675 -0.7687585067583496 -0.3189941084880501
18933000 -0.7931887684936559 -0.23912546874226764
19156325 -0.8101891855154228 -0.1568363623604165
19379650 -0.8187330877355017 -0.07305846048026689
19602975 -0.8192750301375025 0.010962354957746761
19826300 -0.8114544012726655 0.09484660806512725
20049625 -0.7960406242334885 0.17710691189617475
20272950 -0.7728052226610345 0.2569557835981665
20496275 -0.7418635651245016 0.3336214855600127
20719600 -0.7049041007683788 0.4061660588044321
20942925 -0.6616078867266472 0.4743327117656116
21166250 -0.6126419006555157 0.5372792440272857
21389575 -0.5589252431158221 0.5946089172994194
21612900 -0.501313867325518 0.6460057120731714
21836225 -0.440525518801001 0.6920641259485233
22059550 -0.37693377839917624 0.7311720548383384
22282875 -0.3118022667121874 0.7644529209734509
22506200 -0.24528748506478917 0.7906877048952272
22729525 -0.17803878713067153 0.8124859745541935
22952850 -0.1111909531863357 0.8275051329933472
23176175 -0.04411322894980301 0.8370066997059342
23399500 0.02178328764413043 0.8410113517019768
23622825 0.08525354540204187 0.8407218184304984
23846150 0.1482853187593723 0.8361923780154543
24069475 0.20930985812814276 0.8261620168859928
24292800 0.2678666579222143 0.8129604529935626
24516125 0.3245402766184226 0.7951632226929843
24739450 0.37894153174786077 0.774861977401081
24962775 0.430496956136931 0.7512972431700051
25186100 0.4799592552211796 0.7248949596522327
25409425 0.5256863682024281 0.6963886263455145
25632750 0.5697909770634605 0.664922018214705
25856075 0.6103103536409068 0.6316231757533288
26079400 0.6489609873944081 0.5970966140192081
26302725 0.6841094012327122 0.5598534179382176
26526050 0.7166105368372281 0.521458118175662
26749375 0.7468828223516453 0.48237011244176053
26972700 0.7740003787116523 0.4414048360456393
27196025 0.7989700136124347 0.3996818630243373
27419350 0.8215238806561078 0.357313183099542
27642675 0.840794291403102 0.3144799441313105
27866000 0.8577250150697134 0.2701517298546105
28089325 0.8725806288638187 0.2260743961623134
28312650 0.8846370943878068 0.18154690986700936
28535975 0.893991013950542 0.1362675840758806
28759300 0.9013085336215625 0.09074534954884145
28982625 0.9055153002389784 0.04519754915686879
29205950 0.908330576917082 -0.0011612060425386583
29429275 0.9075855165317991 -0.046170957144067264
29652600 0.9050872838889005 -0.0923271497914476
29875925 0.9001312639545442 -0.13768753247010498
30099250 0.8922439955767711 -0.18312570599472927
30322575 0.8824612277453168 -0.22780176213498315
30545900 0.8701696831122315 -0.27253305743042094
30769225 0.8549911599083768 -0.3166887325192663
30992550 0.8376690084543644 -0.3603443339596464
31215875 0.8181408067452093 -0.40272500977286996
31439200 0.7951562002055192 -0.4448876122214281
31662525 0.7700872300154955 -0.48588632452857866
31885850 0.7422636264033363 -0.5263122358899467
32109175 0.7127163680357907 -0.5649686867942844
32332500 0.6791389231452619 -0.6028720957935735
32555825 0.643107858639903 -0.6389294369317033
32779150 0.6057025161142098 -0.6740433585247493
33002475 0.5651751575963091 -0.7063414673206612
33225800 0.5209339752220559 -0.73714695715102
33449125 0.4749618833551026 -0.7653108244871895
33672450 0.4266378715851981 -0.7908784133398876
33895775 0.37561997932608515 -0.8141940652015552
34119100 0.3213061187601838 -0.8334159355297999
34342425 0.26539459742498084 -0.8499726865916047
34565750 0.2073299607424317 -0.863354654067396
34789075 0.1472429772003087 -0.87222470787176
35012400 0.08592124947095 -0.8767898245696072
35235725 0.021992810456327647 -0.8776292727366884
35459050 -0.04262175096723016 -0.8728601374444381
35682375 -0.10821461774034363 -0.8626850625211502
35905700 -0.17450237626247544 -0.848135109761969
36129025 -0.24014265540057553 -0.8270048547831518
36352350 -0.305165040221028 -0.8008062906797937
36575675 -0.36973875602771056 -0.7678428549836602
36799000 -0.43177427676510066 -0.7295501188790746
37022325 -0.4918188432439045 -0.6848614177824777
37245650 -0.548729106660578 -0.6350415101502598
37468975 -0.601128297269963 -0.5782860536915222
37692300 -0.6491688907272741 -0.5167945614799662
37915625 -0.692313561212272 -0.45042934659620465
38138950 -0.7287834225096725 -0.37975651541673167
38362275 -0.7591459084813331 -0.3047644911371592
38585600 -0.7824472769580363 -0.22677629108448819
38808925 -0.7981767159869931 -0.146412504608798
39032250 -0.8062847506172456 -0.06427996556293782
39255575 -0.8068510303394687 0.01821363654019679
39478900 -0.7986216979796624 0.09982896507383374
39702225 -0.7830523041976706 0.18066090369386636
39925550 -0.7600795491648413 0.25961838250091035
40148875 -0.7298156997107363 0.3346994590956207
40372200 -0.6931878767772466 0.4065177053239307
40595525 -0.6501325496186179 0.4737528329833478
40818850 -0.6012049994999833 0.5363971350919432
41042175 -0.5480769966019756 0.5930930038563682
41265500 -0.49074345779585965 0.644243551259823
41488825 -0.429672312908931 0.6887365349150817
41712150 -0.36690833718281385 0.7275219990090005
41935475 -0.30111687676927745 0.7604224553710517
42158800 -0.23538371909560588 0.7864107287559101
42382125 -0.16771806625640404 0.8069895037133279
42605450 -0.10103632112966442 0.8218524073530528
42828775 -0.0341010086910781 0.830507977439574
43052100 0.03150474278531966 0.8351324496746622
43275425 0.09622927163646146 0.8336454862500222
43498750 0.15880171505431162 0.8279404237385638
43722075 0.22028127593514532 0.8169906402574516
43945400 0.2790019573050544 0.8031504284357326
44168725 0.33580975984072153 0.7853194403382898
44392050 0.3889726413112498 0.7638941484980952
44615375 0.44165696819360145 0.7394248904709069
44838700 0.48959881915182585 0.7117392226373561
45062025 0.5354486602911648 0.6821555961556979
45285350 0.578545127459841 0.6499780962695431
45508675 0.6194043397696968 0.6155857934030081
45732000 0.6572181110673456 0.5800965482793141
45955325 0.6922932559656453 0.5420340934295814
46178650 0.7239211671042638 0.5033688055577076
46401975 0.7536020024187913 0.4631906783704232
46625300 0.7801175442754067 0.4222432878684741
46848625 0.803996676800524 0.37934693470670805
47071950 0.8251199949542251 0.3369708176041266
47295275 0.8440537393190036 0.29260111936027694
47518600 0.8597992063023799 0.24869131775127618
47741925 0.8735156576353652 0.20356403252394129
47965250 0.8838743606278152 0.15852792285684958
48188575 0.8926437952315589 0.11292362846801363
48411900 0.8986663996638641 0.06711758701814097
48635225 0.9022337425262885 0.0212616446409724
48858550 0.902987065470526 -0.02441261961957959
49081875 0.9016037529483436 -0.07027218893847186
49305200 0.8975435478218119 -0.1155135978571678
49528525 0.890716693388001 -0.1608658123408733
49751850 0.8822244057607238 -0.2057949473000849
49975175 0.8710462696116845 -0.2503239787160513
50198500 0.8574766926547713 -0.2945179859536279
50421825 0.8407883644430227 -0.33807811796980247
50645150 0.822512059238378 -0.380864959827834
50868475 0.8013024883317545 -0.42280297799859684
51091800 0.7779576371033687 -0.4633225700722726
51315125 0.7516884749175987 -0.5041742127255454
51538450 0.7230628639868278 -0.5431542993568113
51761775 0.6921863175854448 -0.5803559346389286
51985100 0.6580927930556777 -0.6168610423725146
52208425 0.6218106104946163 -0.6518199993887805
52431750 0.5837047175620499 -0.6848317108730406
52655075 0.5422121015168749 -0.7160040338923935
52878400 0.49776690073739976 -0.7447455603799927
53101725 0.45114361796961044 -0.7714671350206118
53325050 0.402648070211059 -0.7952708625827701
53548375 0.3508373555581778 -0.8169466807809421
53771700 0.2975139993044748 -0.8347769074589614
53995025 0.24153927794089433 -0.8495005440640524
54218350 0.18411294779056728 -0.8602958016778315
54441675 0.12436469064410112 -0.8680298582797658
54665000 0.06393797314691226 -0.8705917478577789
54888325 0.0006629044884306504 -0.8688651837144353
55111650 -0.06274484681710063 -0.8638715618263008
55334975 -0.12746023093802863 -0.8518808684879161
55558300 -0.19142510307200414 -0.8351659824453824
55781625 -0.25581623742966514 -0.813521028578642
56004950 -0.3194363243030597 -0.7854631659972141
56228275 -0.3820311682574912 -0.7520887075159292
56451600 -0.4420832884180085 -0.7123103018439125
56674925 -0.499596681541964 -0.6671279327610782
56898250 -0.5544691583223689 -0.6166283145888247
57121575 -0.6047984796213978 -0.5601195405762758
57344900 -0.6507373740699628 -0.49828895997361117
57568225 -0.6913801596237239 -0.43208574833308533
57791550 -0.7257248155366187 -0.3613052107635299
58014875 -0.7539415574723576 -0.287499918387295
58238200 -0.7754547890766866 -0.21005210368442687
58461525 -0.7897477614847743 -0.13051181283565413
58684850 -0.7960562633015822 -0.04955015397730248
58908175 -0.7952414257824274 0.031214837754163897
59131500 -0.7858105220857496 0.11207737739480914
59354825 -0.7692909196575352 0.1913214545555138
59578150 -0.7451860065236702 0.26834956759678313
59801475 -0.7142204299828965 0.3423238064492331
60024800 -0.6765402461819178 0.4125097941492563
60248125 -0.632896517130401 0.47853151646500025
60471450 -0.5837001632188004 0.539820105722912
60694775 -0.5304476400954266 0.5949931489973633
60918100 -0.47194971507721767 0.644111891582664
61141425 -0.41149594428405484 0.6884094748636038
61364750 -0.34775620275192737 0.7252264177034624
61588075 -0.28304833006085145 0.7565140298068223
61811400 -0.21667996123991226 0.7823565290007484
62034725 -0.1494159491265666 0.801074485498887
62258050 -0.08223350522660496 0.8142951303121312
62481375 -0.015664017864928177 0.8224992319217651
62704700 0.04989147296059579 0.8250016367524773
62928025 0.11384326374075601 0.8227490734254257
63151350 0.17671613813659975 0.8157433462686883
63374675 0.23700252424885623 0.8047767594200835
63598000 0.29559316864302315 0.7894312698142099
63821325 0.3516279523350718 0.7697072065060353
64044650 0.40526172706745445 0.7482960862991631
64267975 0.45618830042243513 0.7224232921187084
64491300 0.5035456101306678 0.6941385239623955
64714625 0.5492373748504662 0.6636643793993736
64937950 0.5920830512881673 0.63097469120883
65161275 0.6317437209763807 0.5951103860613652
65384600 0.6677298651723823 0.5587848875869014
65607925 0.7023505990262132 0.5205352103956622
65831250 0.732546944729031 0.4811492930444706
66054575 0.7612246366375861 0.44033771672599287
66277900 0.7866981281822759 0.39831388739669477
66501225 0.8094703404861052 0.3556881049072246
66724550 0.8302049952404142 0.31272933482716003
66947875 0.8472391178544236 0.26839448194899884
67171200 0.8622325975860756 0.2237427707015936
67394525 0.8743936184544088 0.17845810091461287
67617850 0.88450685531132 0.13370913223301706
67841175 0.8917077130115143 0.08791365723690461
68064500 0.8964591080327939 0.0423606033387803
68287825 0.8991336552907263 -0.002932441722455883
68511150 0.898550295644818 -0.04865188712109968
68734475 0.8962835477693749 -0.0936386123820747
68957800 0.8908179023358428 -0.1387581648164639
69181125 0.8834686276800446 -0.184118364051399
69404450 0.8736365620051593 -0.22826146152990437
69627775 0.861241471283593 -0.2721268884748479
69851100 0.8467621333889421 -0.31541367513955637
70074425 0.8295439908834353 -0.3582988134758685
70297750 0.8103164072525441 -0.40069934056717676
70521075 0.7878145538702104 -0.44125565762905733
70744400 0.7637454631910512 -0.48205163065782897
70967725 0.7369098971008076 -0.5205888775821654
71191050 0.7068617019106348 -0.558589498050292
71414375 0.6756224712620869 -0.5955183988828798
71637700 0.6408064661937465 -0.6311126776849578
71861025 0.6035435578405847 -0.6637038168581721
72084350 0.5650613693908088 -0.6958387596855987
72307675 0.523394208411838 -0.7254239166705203
72531000 0.4788493269433556 -0.7533654448982899
72754325 0.43218777182504764 -0.7784124413787227
72977650 0.3836805868390824 -0.8004935390635548
73200975 0.33281562594832026 -0.8200082485026865
73424300 0.27859347990911937 -0.8374232194785007
73647625 0.2240595093995854 -0.8500547720076966
73870950 0.1670502053160002 -0.8603992188562888
74094275 0.10847463913227107 -0.866766891822116
74317600 0.0476745251591637 -0.8676187341265271
74540925 -0.014347054402250061 -0.8658649495288185
74764250 -0.07683527711219938 -0.8582307812177464
74987575 -0.1404975390605112 -0.8460353221695587
75210900 -0.2030508520833988 -0.8279051842758497
75434225 -0.26605077484623985 -0.8052147940609543
75657550 -0.32749358634917414 -0.7771847666989437
75880875 -0.3890391106105176 -0.7428856225420396
76104200 -0.44674784860047784 -0.7030677023010754
76327525 -0.5032365227169822 -0.657452433666932
76550850 -0.5566512917511817 -0.6063730303149873
76774175 -0.6052328619307049 -0.5514090078491216
76997500 -0.649822718579523 -0.4895148720141853
77220825 -0.6888323031301449 -0.4236247173513881
77444150 -0.7221884252314482 -0.3531151298155059
77667475 -0.7491135812059414 -0.27920629734303903
77890800 -0.7693249948754519 -0.20289116910055377
78114125 -0.7820816937788395 -0.12384930209339276
78337450 -0.7875808494863787 -0.044124046428896474
78560775 -0.7855470168673135 0.036301729491965785
78784100 -0.7757637662218642 0.11660671331781575
79007425 -0.7578966071546092 0.19494943838131287
79230750 -0.7330089806265359 0.27138267107673675
79454075 -0.7014293096950972 0.34479486765062073
79677400 -0.6629296032103116 0.41389445279255316
79900725 -0.6186545878367884 0.47901923474583147
80124050 -0.5693702440425135 0.5391437320186863
80347375 -0.5149346806329301 0.5940945853410279
80570700 -0.4561264198785698 0.6422630613878115
80794025 -0.3950877511275973 0.6854252501561765
81017350 -0.33076763534390546 0.7220762747844152
81240675 -0.2657455073146476 0.7525659099944335
81464000 -0.19865501733984003 0.7767931784518947
81687325 -0.1313703501052567 0.7944960388060617
81910650 -0.06420593014610715 0.8070942399267983
82133975 0.0026123605822352095 0.8133156566909963
82357300 0.0681970251227794 0.8146589993355667
82580625 0.13250421372197294 0.811814642925965
82803950 0.19497686784502757 0.8034387294188677
83027275 0.25539348392765404 0.7911384601750554
83250600 0.3133365495539583 0.7739565432267532
83473925 0.3688474999513294 0.7540997554717326
83697250 0.4216358804905904 0.7305832274279538
83920575 0.4725503949628481 0.7029511243626072
84143900 0.5196925255779202 0.6739638174621774
84367225 0.564142780041696 0.6429598743245338
84590550 0.6055858261498637 0.6081673495051843
84813875 0.6446049010703105 0.5722144174232942
85037200 0.6799222691920538 0.5344969556005419
85260525 0.7135811371748124 0.4950396673417577
85483850 0.7431005676572316 0.4545356316235884
85707175 0.7704586905092942 0.41330415739790316
85930500 0.794781617125941 0.37065423624822835
86153825 0.8164473369420141 0.32699215410090765
86377150 0.835397753080908 0.2829484907944761
86600475 0.8517824137653824 0.23868501322328112
86823800 0.8654928707024597 0.19393961921057543
87047125 0.875739739893547 0.14814504170880552
87270450 0.8846938567589469 0.10289622896504122
87493775 0.8903980569387581 0.057238481968609006
87717100 0.8937013995917741 0.011136604037274303
87940425 0.8949434251109253 -0.03474308855060687
88163750 0.8929698566270902 -0.07975211053814138
88387075 0.8887317189145962 -0.12516883442626608
88610400 0.8823072902444068 -0.16991659314210944
88833725 0.8730732651536048 -0.2150674916885073
89057050 0.8621906107623907 -0.258760973926263
89280375 0.8479788885911458 -0.3020765785034068
89503700 0.8321208826442147 -0.3453050663375988
89727025 0.8142653986767391 -0.38699087395370824
89950350 0.7926987713597533 -0.42818768093876386
90173675 0.769384769133161 -0.46807681031787446
90397000 0.7437716091502877 -0.5072793367627568
90620325 0.7159774838970546 -0.5454198339051054
90843650 0.6848788042804707 -0.581945700054163
91066975 0.6522722225811695 -0.6168656582368647
91290300 0.616878300212894 -0.6506837511373459
91513625 0.579772808018629 -0.6829612955918852
91736950 0.539662688476233 -0.7131455857706467
91960275 0.4972247273860596 -0.7413058003207568
92183600 0.4529413388880104 -0.7673757174316393
92406925 0.40552928059739063 -0.7899322494310206
92630250 0.3566320527283155 -0.8109598314476034
92853575 0.305674211920519 -0.8289468973953523
93076900 0.2527328640823109 -0.8438767228932185
93300225 0.19720597873501958 -0.8542441517581798
93523550 0.14138924763518476 -0.8629608122833196
93746875 0.08253770506606987 -0.86700761431218
93970200 0.023218685219905996 -0.8667322984808742
94193525 -0.03784871606834291 -0.8619810558806278
94416850 -0.09905704703148138 -0.8530591746412359
94640175 -0.16128208047146092 -0.8390080546152603
94863500 -0.22270051638952465 -0.8195494222501231
95086825 -0.283911873346305 -0.795324705088646
95310150 -0.3443717397971689 -0.7651641095128212
95533475 -0.40276389000847435 -0.7300321801653928
95756800 -0.45945437464946454 -0.6892173833735835
95980125 -0.5140220733284463 -0.643230549945857
96203450 -0.5647986539895419 -0.591432354840617
96426775 -0.6114239597017755 -0.5359231376230782
96650100 -0.6539156785119887 -0.47433140936173296
96873425 -0.6911136742526964 -0.4079877701319297
97096750 -0.722385787876158 -0.337959181604923
97320075 -0.747367102387993 -0.26500977392410574
97543400 -0.7659102725365884 -0.18893132733530646
97766725 -0.7766769896542001 -0.11088401723691717
97990050 -0.7803429107021128 -0.032506086505120914
98213375 -0.7768014433162891 0.047238910178800275
98436700 -0.7655481549853806 0.125364751454274
98660025 -0.7470080390936124 0.20322198619058193
98883350 -0.7213277676377668 0.27797305365903574
99106675 -0.6892591041539818 0.3495269288328852
99330000 -0.6500429682028066 0.4179995366391337
99553325 -0.605329131849706 0.481646968042396
99776650 -0.5551794396117407 0.5399811647884354
99999975 -0.5008093765619739 0.5934696732287897
