# HZ S RI R 50
10000000 -0.8231087567853563 0.07821038167759024
10223325 -0.8082395492650063 0.1613457048600918
10446650 -0.7849111618915556 0.241939894177559
10669975 -0.7551626035721519 0.3195964781300181
10893300 -0.7176805768557445 0.39319105632324236
11116625 -0.6744544224598843 0.46239248936326405
11339950 -0.6259558761588405 0.5264311606848282
11563275 -0.5732925478144446 0.5844967982220707
11786600 -0.5160760107581576 0.6367954028932967
12009925 -0.45599203784116443 0.6834787663420187
12233250 -0.39278258104491626 0.7233732590655354
12456575 -0.3281640517820655 0.7574127998132488
12679900 -0.26225800548185085 0.7858486502656364
12903225 -0.1954080721385377 0.807423991841241
13126550 -0.12925677878547878 0.8244680403859374
13349875 -0.06312276218978632 0.8351737929082285
13573200 0.002451617875772361 0.8410968758132216
13796525 0.06619755702158311 0.8416306543400287
14019850 0.12921930520147135 0.8378473506217698
14243175 0.19015477541326253 0.8298064989939207
14466500 0.24874420889077295 0.8180921796085208
14689825 0.30601253482447566 0.8027025974158553
14913150 0.35993475079771564 0.7829148134945446
15136475 0.4120605525298562 0.7613458218268443
15359800 0.46113593042099926 0.7367708163944174
15583125 0.5083838937316224 0.7090518440343702
15806450 0.5530784955170158 0.6795880922153843
16029775 0.5949400610963744 0.6474716609369345
16253100 0.6339965318804204 0.6130999027522123
16476425 0.669941857022908 0.578636340504972
16699750 0.7036327193237757 0.540970632951117
16923075 0.7354593812156062 0.5030289996779455
17146400 0.763918536274801 0.46341787037071774
17369725 0.7895878916664757 0.42281043125487655
17593050 0.8137394140694449 0.38045743577778923
17816375 0.8338758691417991 0.3382652877443733
18039700 0.8526448957334087 0.29476374652334697
18263025 0.8687937246513293 0.2512521915425279
18486350 0.8820669867233751 0.20706930598531373
18709675 0.8927691707660953 0.16244629159373103
18933000 0.9012393385628319 0.11723910625167319
19156325 0.9075422304055608 0.07205862097368321
19379650 0.9114386774673737 0.026864696647571653
19602975 0.913047901879165 -0.01894360252266877
19826300 0.911673570959236 -0.06471780340397096
20049625 0.9081482872309184 -0.10989514527965517
20272950 0.9025152862603243 -0.15551332590549996
20496275 0.893845077287536 -0.20106899217215146
20719600 0.8828498370647881 -0.2458723499207476
20942925 0.8696905004126857 -0.29045947313566717
21166250 0.8539162408151136 -0.33453504097806475
21389575 0.835749910521733 -0.37757998314437435
21612900 0.8145396962705427 -0.4209932930287576
21836225 0.7913394063681412 -0.46281356931951834
22059550 0.7652511601806419 -0.5041618613030127
22282875 0.7363993387861507 -0.5441687413917454
22506200 0.7050935360743515 -0.5829730305219528
22729525 0.6703661365548814 -0.6198776204145705
22952850 0.6337806633073121 -0.6560109599479986
23176175 0.594535771658279 -0.6906367004023032
23399500 0.5526122473008647 -0.7227666959436146
23622825 0.507296877339061 -0.7536601993721788
23846150 0.45958479157161114 -0.779848518329482
24069475 0.4089662407445199 -0.8056276029327164
24292800 0.3558350702966741 -0.8275653071473961
24516125 0.30128626202566905 -0.8466040735677851
24739450 0.24402035864865837 -0.8620914386290819
24962775 0.1843376340024355 -0.8731906296571879
25186100 0.12265727225325239 -0.8808226314216132
25409425 0.05956785483629534 -0.8837692734335302
25632750 -0.005009751462913329 -0.8825272049806218
25856075 -0.07140149646832958 -0.8753175538735377
26079400 -0.138941178809161 -0.8630840255090434
26302725 -0.2048766592946184 -0.8453870098078738
26526050 -0.271091291013289 -0.8220898060642011
26749375 -0.33686948875267086 -0.7917381795264028
26972700 -0.40081400862409183 -0.7568353864329479
27196025 -0.4626345261367628 -0.7148993264238327
27419350 -0.521968545301734 -0.6664254779983148
27642675 -0.5770533365225737 -0.6130395167572654
27866000 -0.6286474887920819 -0.5538684973555906
28089325 -0.6744752010750228 -0.4895994705559385
28312650 -0.7145035374047426 -0.41938126487679006
28535975 -0.7490150721650658 -0.3460148370697588
28759300 -0.7759481657199653 -0.26876320502394735
28982625 -0.7958884590447012 -0.18887591271174847
29205950 -0.8081064900451623 -0.10707174064060805
29429275 -0.8119280028488266 -0.024361012930022498
29652600 -0.8086949827205974 0.058844162716073865
29875925 -0.7965059205143824 0.14057603243020908
30099250 -0.7771958839884934 0.22056207673620892
30322575 -0.7505083789481589 0.29804619576801594
30545900 -0.7166255981522408 0.371868756200501
30769225 -0.6765970750384577 0.4418301763727844
30992550 -0.6311931319951907 0.506410513974306
31215875 -0.5796767041054198 0.5658372217260599
31439200 -0.5247250026388477 0.6206039927931523
31662525 -0.4656550972876367 0.6685028547928473
31885850 -0.40372644070293245 0.7103950835811161
32109175 -0.33954029985592893 0.7463145938264356
32332500 -0.27385884418796225 0.7762120200074025
32555825 -0.2072710366887557 0.8001136880011015
32779150 -0.13965027888082832 0.8177537581161116
33002475 -0.07307776952881224 0.8301283227306282
33225800 -0.007406689637970225 0.8364732915333066
33449125 0.05746126266837721 0.8387547691815259
33672450 0.12184796592359996 0.8354977879033513
33895775 0.18342431859022593 0.8272296980672398
34119100 0.24277413269315093 0.8166165675448157
34342425 0.3005056336189909 0.8006790674910671
34565750 0.3560827932953302 0.7811228663401135
34789075 0.40888281767145435 0.7589834831361059
35012400 0.45929620635596674 0.7334236914660128
35235725 0.5067222033582066 0.7049844664364389
35459050 0.5516384376367898 0.6751863411545198
35682375 0.5938049625802001 0.6428764633605872
35905700 0.6328232508090282 0.608271801213209
36129025 0.6699309884499365 0.5717331363186998
36352350 0.7036710876193056 0.5335138882226605
36575675 0.7347242416244694 0.4950360735821241
36799000 0.7636235130812863 0.4546635717363534
37022325 0.7894283223749393 0.4133890593728207
37245650 0.8121399474945736 0.37062433894316
37468975 0.8326335393577837 0.327649520172329
37692300 0.8503493475340347 0.2839518667331818
37915625 0.8657754797501207 0.24001135238675875
38138950 0.8782830769946541 0.1954679035250835
38362275 0.8888238442755737 0.150153467068361
38585600 0.8966547737030027 0.10516980229046453
38808925 0.9024694354169771 0.059705413100961204
39032250 0.9050291950767321 0.014308744804079811
39255575 0.9059809621880304 -0.03135250090881666
39478900 0.9035268447322727 -0.07694405185442398
39702225 0.8993251552311289 -0.12269507049892424
39925550 0.8925676933277149 -0.1673639572125979
40148875 0.8835235889720646 -0.21267932690023533
40372200 0.8721367466619991 -0.2568737725521292
40595525 0.8579438703916463 -0.30115546008789146
40818850 0.8415355135858185 -0.3441168714596602
41042175 0.8221627177328943 -0.3872890254753136
41265500 0.8009375913800804 -0.4289821290845083
41488825 0.7769903616964703 -0.47041755777405253
41712150 0.751001483234272 -0.5103006495144051
41935475 0.721370885792214 -0.5492155593584032
42158800 0.6900592411443592 -0.5873043923449326
42382125 0.6558292073067594 -0.6232921162930378
42605450 0.6185877024148696 -0.6576499933591287
42828775 0.5794045624005543 -0.6914262468012347
43052100 0.5372968913690809 -0.72199054335288
43275425 0.4934040285707041 -0.7508995097320925
43498750 0.4458589646120367 -0.7774811068697566
43722075 0.39761296421230585 -0.8015702774823998
43945400 0.34477517407810154 -0.8218969636890491
44168725 0.29083370389994634 -0.8391975033400226
44392050 0.23333799527388965 -0.8546283014679674
44615375 0.17637023964070433 -0.8641873646880179
44838700 0.11566679503927169 -0.8713307275278243
45062025 0.053650080823031424 -0.8739746985139488
45285350 -0.00909918488505783 -0.871654672689425
45508675 -0.07285335758107188 -0.8650584896605346
45732000 -0.13835458635500775 -0.8529084481868245
45955325 -0.20275000640740362 -0.8349926948594221
46178650 -0.26756091882544736 -0.8114051114156439
46401975 -0.3310797453281087 -0.7828411413229439
46625300 -0.393965981970409 -0.7483824705632551
46848625 -0.4536128394519661 -0.70751863953323
47071950 -0.511363167041837 -0.6611153853715023
47295275 -0.5648348892570297 -0.6094723199679881
47518600 -0.61539386824556 -0.5521506515070757
47741925 -0.6608696810140365 -0.48928899235814777
47965250 -0.7005182101535686 -0.4220388960143102
48188575 -0.7345227494559203 -0.3503134012303334
48411900 -0.7619239482600522 -0.2754319111990201
48635225 -0.7822433735546073 -0.19717914140806922
48858550 -0.7953533578415674 -0.11724928248888919
49081875 -0.8003883849523934 -0.03632577369072704
49305200 -0.7977566589866025 0.04509549200926627
49528525 -0.7877115300805685 0.12560695293882504
49751850 -0.7699967759664655 0.2049052774771639
49975175 -0.7451618889711754 0.28162190900559464
50198500 -0.7130417740229497 0.35539252433006796
50421825 -0.674612942774085 0.42515090348559653
50645150 -0.630335969683686 0.48946646526088755
50868475 -0.5805803899866767 0.5496477346323119
51091800 -0.5263778458243836 0.6041488961676326
51315125 -0.4686381738920984 0.6532842154412672
51538450 -0.40802972765795864 0.6962604669553007
51761775 -0.3437618327767799 0.7333212833362661
51985100 -0.27914722343917536 0.7638818735411844
52208425 -0.21292384852667381 0.7876754943086333
52431750 -0.14564220130222336 0.806408998546916
52655075 -0.07923994443477779 0.8197585216735139
52878400 -0.013141259994016956 0.8273822921245076
53101725 0.05235880614559207 0.8300183566391668
53325050 0.11597603456707159 0.8269187820462502
53548375 0.17822137364771967 0.8208979883294985
53771700 0.23826119690340927 0.8089331270050478
53995025 0.296543948333641 0.7935781711982095
54218350 0.3521760611587851 0.7743917362456639
54441675 0.4054035070497051 0.7520687150423568
54665000 0.4565212474594578 0.7270899268097992
54888325 0.5038203198941696 0.6994127094065646
55111650 0.5488788958293211 0.6692742096978287
55334975 0.5910943673818619 0.6356700947912601
55558300 0.6309757985474342 0.6012091633302102
55781625 0.667052487412025 0.5650292445036527
56004950 0.7017873631238096 0.5264986037182839
56228275 0.7323568900376284 0.48743886570862344
56451600 0.7611808213568134 0.44694884884590697
56674925 0.7870684877070545 0.4059261128306798
56898250 0.809967745580785 0.3626121521119247
57121575 0.8302012029881674 0.31949491577006417
57344900 0.8485321621519852 0.2755855798122605
57568225 0.8631858456480471 0.2315033830226488
57791550 0.8761020509299692 0.18656299173145705
58014875 0.8855236034859365 0.14188015207399174
58238200 0.8933588492672065 0.09636941189971072
58461525 0.8985698736518913 0.05111172967511544
58684850 0.9012076496622909 0.005805411951577739
58908175 0.9015405249112588 -0.039915002536620045
59131500 0.8990152645523528 -0.08502866458175935
59354825 0.8944568532521936 -0.13054019276267428
59578150 0.8878467438534913 -0.17583337156198042
59801475 0.8781619721298421 -0.21994399342517787
60024800 0.8665276566802069 -0.26413058783391896
60248125 0.8517962273732003 -0.30758182227171144
60471450 0.8350897490032108 -0.3506708197301526
60694775 0.8156106521736148 -0.39274965661564415
60918100 0.7940428156724396 -0.4341170786167784
61141425 0.7701829131117489 -0.4747185905494046
61364750 0.7436121460084406 -0.5140483896069864
61588075 0.7144393043909525 -0.552786983606599
61811400 0.6825348289836651 -0.5893614746830029
62034725 0.6487824874084536 -0.6251860204755605
62258050 0.6125823419117372 -0.6594106562115356
62481375 0.5735609321568417 -0.6913527145612274
62704700 0.532312184727897 -0.7216267637920951
62928025 0.4880133985711064 -0.7506031257476847
63151350 0.44136592382786 -0.7752995237464919
63374675 0.39262545147893213 -0.7983579522714814
63598000 0.3410245059631698 -0.8193731050962673
63821325 0.2878465861897325 -0.8360975374568272
64044650 0.2326808499662689 -0.8496826415033175
64267975 0.17496174519049268 -0.8604600932257491
64491300 0.11562794585303071 -0.8669461572165745
64714625 0.05502794565879056 -0.8685157556222616
64937950 -0.00665968990053787 -0.8664468670094708
65161275 -0.06898982047762485 -0.8599246797021426
65384600 -0.1330048082127156 -0.8476647906392173
65607925 -0.1964023444748183 -0.8307732022350701
65831250 -0.25992153529909423 -0.8082721235288938
66054575 -0.3223193880828664 -0.7803498191785533
66277900 -0.3830005012865974 -0.74645595835039
66501225 -0.4423120163891881 -0.7067629259177987
66724550 -0.4988432884945444 -0.662471548557891
66947875 -0.5529610025565352 -0.6119222663953735
67171200 -0.6022227915761609 -0.5551482503797394
67394525 -0.6478711907253404 -0.4938704660433172
67617850 -0.6868010985881988 -0.42840648104516765
67841175 -0.7212180194243286 -0.35846994637567653
68064500 -0.7490050614514725 -0.2849593945883301
68287825 -0.7698221348607789 -0.2084878079744271
68511150 -0.783440917623768 -0.1295034639476042
68734475 -0.7896323728152049 -0.05016856189186445
68957800 -0.7878841334648411 0.030386913975659537
69181125 -0.7791925896814198 0.11032792193343151
69404450 -0.7624692847624897 0.18878382489943402
69627775 -0.7388170267661792 0.2648700321858681
69851100 -0.7076133040356819 0.33826680617425675
70074425 -0.6701983131709034 0.40745416684768576
70297750 -0.6263351161049168 0.47285197408361
70521075 -0.5782027552963338 0.5339716432190169
70744400 -0.5251471812115028 0.5883231965678783
70967725 -0.4677453061395994 0.638021941942301
71191050 -0.40685354044654237 0.6817442088343307
71414375 -0.34425830406116464 0.7187469484990101
71637700 -0.2789637000019163 0.7500854404704868
71861025 -0.21312319326260548 0.7755560094689931
72084350 -0.1463061584990157 0.7946791392058958
72307675 -0.07892769743179744 0.8075589658273713
72531000 -0.013617632060065478 0.8165199477317594
72754325 0.05245094032933947 0.819221080870015
72977650 0.11659625802394123 0.816556882810529
73200975 0.1790601336004694 0.8093917236275642
73424300 0.23900649935466875 0.798349016111031
73647625 0.29803803119808536 0.7831078696736348
73870950 0.3538932920437356 0.763900756742874
74094275 0.4069260061880323 0.7410647464666407
74317600 0.45795913975876934 0.716545164379617
74540925 0.5054168128434133 0.687723739172707
74764250 0.5508151663575195 0.6573826916777528
74987575 0.5925981830714002 0.6245957100876778
75210900 0.6325111181854934 0.5895496471691651
75434225 0.6690847903740995 0.5530479525266127
75657550 0.7030965570025464 0.5142217500948766
75880875 0.733760609553841 0.4745100033524937
76104200 0.7618800172262084 0.43411092052036
76327525 0.7872532843455274 0.392611955597962
76550850 0.810237317601392 0.3495753668057417
76774175 0.8299916173566634 0.3066769101732909
76997500 0.8468600629276027 0.26305923757336425
77220825 0.86197321286452 0.21817108389022447
77444150 0.8735348708847772 0.1736983391309115
77667475 0.8833052109165568 0.12834776101886144
77890800 0.8904292389531444 0.0834986875263082
78114125 0.8954326902009854 0.03752431171450405
78337450 0.8971566997575733 -0.007434837535000083
78560775 0.8969237610855862 -0.052815428475344366
78784100 0.8946599691326669 -0.0977964600874389
79007425 0.8894969774069826 -0.14277510389123266
79230750 0.8817121876585794 -0.18712418326628913
79454075 0.8715146087680324 -0.2314787859951687
79677400 0.8591025082303179 -0.27462653299043444
79900725 0.8449647443964411 -0.31839413056452043
80124050 0.8279268895532607 -0.3608819029300321
80347375 0.8080517888340427 -0.4024600899817994
80570700 0.7869139356080836 -0.4432592935352115
80794025 0.7621697488708353 -0.4826980026940678
81017350 0.7355339865723128 -0.5222103074994427
81240675 0.7070161912243378 -0.5591960795774232
81464000 0.6754512860282464 -0.5951764963758819
81687325 0.6418634093277017 -0.6305393159254306
81910650 0.6054215390348845 -0.6637570337791349
82133975 0.5660723100294548 -0.6947527927977686
82357300 0.5254123063142798 -0.72505904194369
82580625 0.4817841715424434 -0.7519949567376709
82803950 0.43640587178202483 -0.7764325968429697
83027275 0.3883347532738874 -0.7986570514254785
83250600 0.33904302531010133 -0.8187011852974104
83473925 0.28618163604394514 -0.8362867852864291
83697250 0.23231623626953615 -0.8487490616156577
83920575 0.1771254944888408 -0.8594889924943327
84143900 0.11861275047434262 -0.8652379663101003
84367225 0.05964956193267232 -0.8679104847277233
84590550 -0.0004069550112184494 -0.8661929975765189
84813875 -0.061720876099099875 -0.8594580602169223
85037200 -0.12355850391052711 -0.8488160289375271
85260525 -0.1854464254400883 -0.8326612296324797
85483850 -0.24754942964254606 -0.8117297749122895
85707175 -0.3082917012878206 -0.7844558961481134
85930500 -0.368649894555354 -0.7518187710720338
86153825 -0.4267081237596599 -0.7150687790939955
86377150 -0.48271086423527787 -0.671699258035606
86600475 -0.5361058554621201 -0.6227723356497682
86823800 -0.5850247907262615 -0.569123228859116
87047125 -0.6305352862935092 -0.5104386033259039
87270450 -0.6704495295380877 -0.4464195280403191
87493775 -0.7050991899513118 -0.378416100494447
87717100 -0.7336262035925453 -0.306946742401943
87940425 -0.7562103375505977 -0.23239357572215472
88163750 -0.7718894408894804 -0.1557624529817607
88387075 -0.779802075615431 -0.07737022889035805
88610400 -0.7804699959541657 0.0018553034885276287
88833725 -0.7739355814408921 0.08108394954428086
89057050 -0.7596126952692072 0.15943409403641784
89280375 -0.7381837743038062 0.23602636739204205
89503700 -0.7095832065568579 0.3090958284756363
89727025 -0.6743687071943183 0.3798918400213819
89950350 -0.633141955617951 0.4459932220140675
90173675 -0.5865706414423693 0.507391876299467
90397000 -0.5347503645737448 0.5641018104886305
90620325 -0.47913019709236626 0.6147618331569422
90843650 -0.4197040610691396 0.6600121560951316
91066975 -0.35715510892544833 0.6991821663915279
91290300 -0.2936757787799427 0.7318160357849266
91513625 -0.22766706123404404 0.758849418632244
91736950 -0.16064066511704134 0.7798313226273283
91960275 -0.09417610550116363 0.7944321749883566
92183600 -0.027403510606034943 0.804069475544682
92406925 0.03845266578628035 0.8084064477727928
92630250 0.10294177501840229 0.8072833616752334
92853575 0.16564497247503265 0.801528514629747
93076900 0.22717979457986984 0.790581696526607
93300225 0.286136067398315 0.7759267586761235
93523550 0.3432511761819177 0.7575307194230171
93746875 0.3971154566150023 0.7353453096586894
93970200 0.4484689249191925 0.7101493279867765
94193525 0.4975627607486886 0.6825745255338629
94416850 0.5427773054295133 0.6515894704801964
94640175 0.5862880951249532 0.618703182722886
94863500 0.6259593645279113 0.583849018535082
95086825 0.6634053324589319 0.5470161938202486
95310150 0.6969853566402081 0.5087583456909137
95533475 0.7285344528101289 0.46918180088498
95756800 0.7575194980616407 0.4278571629868882
95980125 0.7827104258656647 0.38603398157246566
96203450 0.805502415565911 0.3433162691561894
96426775 0.8262135057323325 0.2992168192279346
96650100 0.8430679673726074 0.2551310953471205
96873425 0.8579969050295052 0.21060882292699246
97096750 0.86997272047284 0.16548952353760724
97320075 0.8793499206738138 0.12003839366191207
97543400 0.8865026924991829 0.07483638390162868
97766725 0.8910433482085934 0.02961407945423091
97990050 0.893040653893304 -0.015657976233196345
98213375 0.8927247168538137 -0.06132863213470966
98436700 0.889365691989105 -0.10609385391558393
98660025 0.8841890616519957 -0.15135235343007386
98883350 0.8765457025280525 -0.19518502962263518
99106675 0.8664477120323082 -0.2392124541449322
99330000 0.8542225000435505 -0.283188113746463
99553325 0.839286671973492 -0.32546743142106954
99776650 0.8221795976373868 -0.36813540707369996
99999975 0.8020795004555846 -0.4088657365897712
